!Agilent N9918A: A.07.57
!Date: Thursday, 18 December 2014 15:29:27
!TimeZone: (GMT+08:00) Kuala Lumpur, Singapore!Model: N9918A
!Serial: MY53103598
!GPS Latitude: 
!GPS Longitude: 
!GPS TimeStamp: 0001-01-01 00:00:00Z
!GPS Seconds Since Last Read: 0
!CHECKSUM:0546070579
!Correction: S11(Rdy)
!S1P File: Measurement: S11:
# Hz S DB R 50
2210000000	-1.57194057528803	109.863979530543
2210040040.04004	-1.56278225686535	109.74925025134
2210080080.08008	-1.5622284349189	109.684757278748
2210120120.12012	-1.5501551920905	109.555143538331
2210160160.16016	-1.56015139960635	109.418494548525
2210200200.2002	-1.55413689276573	109.291324174169
2210240240.24024	-1.54726204357283	109.161612394959
2210280280.28028	-1.54893772663236	109.057341117601
2210320320.32032	-1.54087852600075	108.944582237638
2210360360.36036	-1.54497832387109	108.736082667678
2210400400.4004	-1.55307885105956	108.644979073189
2210440440.44044	-1.54592919260147	108.574081144236
2210480480.48048	-1.53906361790673	108.443501927051
2210520520.52052	-1.54485218649528	108.267955069085
2210560560.56056	-1.54650997045536	108.135664906796
2210600600.6006	-1.53936406376146	108.027808637987
2210640640.64064	-1.54424956172415	107.86737605636
2210680680.68068	-1.54444683189971	107.809419403595
2210720720.72072	-1.54010186917992	107.665213067869
2210760760.76076	-1.54215087822291	107.563600313025
2210800800.8008	-1.53864651179376	107.432803963718
2210840840.84084	-1.55279744746886	107.263285479051
2210880880.88088	-1.54284921669129	107.148144898763
2210920920.92092	-1.5436609467606	106.995963416316
2210960960.96096	-1.54414884504333	106.931075823261
2211001001.001	-1.54580382450715	106.812874113974
2211041041.04104	-1.54146592010951	106.606410512866
2211081081.08108	-1.54310118113753	106.510217511003
2211121121.12112	-1.5361685758928	106.368399360094
2211161161.16116	-1.54195276364915	106.256325154435
2211201201.2012	-1.55116052382454	106.10515380852
2211241241.24124	-1.53776519795432	106.071458372864
2211281281.28128	-1.54306815887192	105.857406239555
2211321321.32132	-1.54605526506649	105.709374893206
2211361361.36136	-1.54179960104951	105.648310749027
2211401401.4014	-1.54438224333997	105.509998759287
2211441441.44144	-1.54467675630374	105.33462130963
2211481481.48148	-1.5432588253525	105.209149915405
2211521521.52152	-1.53811772679383	105.10841795232
2211561561.56156	-1.54296171798753	104.999142992048
2211601601.6016	-1.54452958401026	104.826287698692
2211641641.64164	-1.54797084235564	104.754822604472
2211681681.68168	-1.54574801543238	104.594698956659
2211721721.72172	-1.54173063329255	104.466736591859
2211761761.76176	-1.5530676982343	104.359761599355
2211801801.8018	-1.55039989408639	104.244476681394
2211841841.84184	-1.53681859778404	104.142078834062
2211881881.88188	-1.54065964886211	103.962760682198
2211921921.92192	-1.55107553009463	103.804276947693
2211961961.96196	-1.5460966028273	103.752218322069
2212002002.002	-1.54691932572888	103.569044093345
2212042042.04204	-1.54358261014984	103.44548155746
2212082082.08208	-1.54684301268512	103.308273047226
2212122122.12212	-1.5454245930109	103.231089983759
2212162162.16216	-1.55190578595957	103.091938078147
2212202202.2022	-1.55176437337954	102.990005881321
2212242242.24224	-1.54592106793415	102.76230003234
2212282282.28228	-1.54705836421954	102.705671490898
2212322322.32232	-1.55048932708001	102.547357911311
2212362362.36236	-1.5471020811052	102.459508254679
2212402402.4024	-1.5458471697079	102.353933501463
2212442442.44244	-1.54735818675784	102.168072828864
2212482482.48248	-1.55827572979409	102.067326558334
2212522522.52252	-1.55511817060638	101.961120213461
2212562562.56256	-1.55432446471035	101.782978380241
2212602602.6026	-1.55075244604947	101.636476415958
2212642642.64264	-1.55397593814755	101.546221147383
2212682682.68268	-1.55450669662916	101.384402868143
2212722722.72272	-1.55009929640622	101.256675775549
2212762762.76276	-1.55022242758792	101.170439506777
2212802802.8028	-1.54845742022197	101.033714323851
2212842842.84284	-1.5528625820635	100.935804683451
2212882882.88288	-1.55761771953256	100.770460958545
2212922922.92292	-1.55156459890526	100.615528639421
2212962962.96296	-1.54414312917698	100.497082050831
2213003003.003	-1.55246388130912	100.386147313009
2213043043.04304	-1.55311990410719	100.243880093343
2213083083.08308	-1.55334459023719	100.065517250859
2213123123.12312	-1.55676331513545	99.9580235536385
2213163163.16316	-1.56240657861404	99.8603365371038
2213203203.2032	-1.55462860080134	99.7570760365585
2213243243.24324	-1.55077099256937	99.5385172999705
2213283283.28328	-1.55893550395786	99.4534245726483
2213323323.32332	-1.55282051084496	99.2974522739067
2213363363.36336	-1.56082994016926	99.2729122099629
2213403403.4034	-1.55265797375526	99.0712400078867
2213443443.44344	-1.55856567131978	98.9017462067076
2213483483.48348	-1.55545366685869	98.7959053565466
2213523523.52352	-1.55714287825629	98.6838327988386
2213563563.56356	-1.55612010260141	98.5759942218303
2213603603.6036	-1.55927389884554	98.4411588159586
2213643643.64364	-1.55194000753439	98.205547119421
2213683683.68368	-1.56046602889137	98.1640218843897
2213723723.72372	-1.56086671208776	98.0392041927808
2213763763.76376	-1.56089787144542	97.9658003366744
2213803803.8038	-1.56177909209552	97.7486126567334
2213843843.84384	-1.55284398023876	97.6149472831878
2213883883.88388	-1.56057463021235	97.5449360645532
2213923923.92392	-1.55128530562998	97.4303335897697
2213963963.96396	-1.55598386846744	97.2877506819821
2214004004.004	-1.55802066940288	97.1080148765059
2214044044.04404	-1.55449041921192	96.9856194136661
2214084084.08408	-1.56722913601195	96.850561756049
2214124124.12412	-1.5567820334541	96.747752821555
2214164164.16416	-1.56342179593502	96.5550593847851
2214204204.2042	-1.55761138131579	96.4406848916774
2214244244.24424	-1.5684941940867	96.3942879251715
2214284284.28428	-1.55278077952668	96.2053305318594
2214324324.32432	-1.56380359499827	96.0894375701299
2214364364.36436	-1.56763265166571	95.9910323336946
2214404404.4044	-1.56838159278355	95.828951876994
2214444444.44444	-1.55904039934738	95.7309624098826
2214484484.48448	-1.56131587123464	95.5551708885986
2214524524.52452	-1.55863394072361	95.4343462624981
2214564564.56456	-1.56607473345729	95.2879115126995
2214604604.6046	-1.56497653996617	95.1574197452238
2214644644.64464	-1.56471589779279	95.0109197580293
2214684684.68468	-1.56637105432037	94.8361978222716
2214724724.72472	-1.57342651502774	94.7743807646529
2214764764.76476	-1.56446400818077	94.6144813897602
2214804804.8048	-1.56820620397579	94.4998686846397
2214844844.84484	-1.5680543970234	94.3616228815865
2214884884.88488	-1.56542227010937	94.2789320940247
2214924924.92492	-1.56986908919262	94.0823326032572
2214964964.96496	-1.56144157450817	93.9356988159732
2215005005.005	-1.56992127206165	93.8040975912689
2215045045.04504	-1.56274932584434	93.6769134088262
2215085085.08508	-1.5709831385641	93.5796115823372
2215125125.12512	-1.57189491525468	93.4096878484948
2215165165.16516	-1.5701734941755	93.3078946031827
2215205205.2052	-1.56185131199487	93.1402485248065
2215245245.24524	-1.57480712640686	93.0103857904729
2215285285.28528	-1.57238706844082	92.9351091250372
2215325325.32532	-1.57713369431479	92.8122704626318
2215365365.36536	-1.57071473963508	92.6202598701803
2215405405.4054	-1.56553119684261	92.4852316727066
2215445445.44544	-1.57544247781326	92.3868861044668
2215485485.48548	-1.56605588839193	92.2293054362063
2215525525.52552	-1.56747764976503	92.1013714479492
2215565565.56556	-1.57257288979589	91.958390206943
2215605605.6056	-1.57153808325208	91.8135780105128
2215645645.64564	-1.56680640817781	91.6946766484885
2215685685.68568	-1.57435362281304	91.571683672836
2215725725.72572	-1.58208769648439	91.405098166873
2215765765.76576	-1.57838344157514	91.3359234484934
2215805805.8058	-1.583149511111	91.1503644610781
2215845845.84584	-1.5790744093537	91.0387736946366
2215885885.88588	-1.57468322932388	90.927161280159
2215925925.92592	-1.58584400997685	90.7872922616441
2215965965.96596	-1.57842398124784	90.630069742999
2216006006.006	-1.57498533966155	90.5534326515748
2216046046.04604	-1.56492126104837	90.3810957774435
2216086086.08608	-1.58498645493293	90.3051934134591
2216126126.12612	-1.5706487467305	90.1065137822845
2216166166.16616	-1.57522155511272	89.9820927961755
2216206206.2062	-1.57470682512487	89.9035869307326
2216246246.24624	-1.57098326103031	89.7107459228845
2216286286.28628	-1.57437244767886	89.6009571940973
2216326326.32632	-1.57955763240194	89.4613650683192
2216366366.36636	-1.58764018238993	89.3532213736065
2216406406.4064	-1.56732012898989	89.1528744496477
2216446446.44644	-1.58115810723493	89.0643867155566
2216486486.48648	-1.57791689772743	88.9056984834533
2216526526.52652	-1.58468302694566	88.8468467521462
2216566566.56656	-1.57778639607614	88.7017141157336
2216606606.6066	-1.57942839268488	88.5081152079251
2216646646.64664	-1.58376232027746	88.417898488246
2216686686.68668	-1.57968525614872	88.2777966763863
2216726726.72672	-1.58846319903556	88.1856260300075
2216766766.76676	-1.58843649126236	88.0222977716212
2216806806.8068	-1.59030614128182	87.8474825816788
2216846846.84684	-1.58068067100503	87.7380766933107
2216886886.88688	-1.57958857517941	87.5889103026303
2216926926.92692	-1.58879386317363	87.4173534855941
2216966966.96696	-1.58084067314014	87.3340977483634
2217007007.007	-1.5804462517619	87.1725377487465
2217047047.04704	-1.57911836570378	87.0310529649975
2217087087.08708	-1.57805019780359	86.904820255291
2217127127.12712	-1.5840890883076	86.8096182448868
2217167167.16716	-1.57898242912904	86.6195282581911
2217207207.2072	-1.57767973247923	86.5002774688448
2217247247.24724	-1.58752063756468	86.3949078978013
2217287287.28728	-1.59375958804297	86.222840587797
2217327327.32732	-1.59120743584024	86.1168383800279
2217367367.36736	-1.59365376588934	85.9170510049278
2217407407.4074	-1.59563976092636	85.7909702150211
2217447447.44744	-1.59624043194914	85.6698031079345
2217487487.48748	-1.59321322477562	85.5613880958559
2217527527.52752	-1.59093929727894	85.3991972421407
2217567567.56756	-1.59006816170944	85.2846475854581
2217607607.6076	-1.58891384144304	85.1816826452485
2217647647.64764	-1.59095572095488	84.9916534048167
2217687687.68768	-1.5825160132503	84.8913375114632
2217727727.72772	-1.59452886288634	84.7744691061482
2217767767.76776	-1.58971310537058	84.6506591457063
2217807807.8078	-1.59948941487621	84.5419803109372
2217847847.84784	-1.59726080694962	84.3577211808278
2217887887.88788	-1.60437008189365	84.1822936787397
2217927927.92792	-1.60130994374161	83.9800045847727
2217967967.96796	-1.59559135074349	83.9180386986531
2218008008.008	-1.59967582612897	83.7213563715758
2218048048.04804	-1.59630963299111	83.6364243809429
2218088088.08808	-1.59639014296714	83.5000154204393
2218128128.12812	-1.60041691378476	83.3274644765393
2218168168.16816	-1.59450946767905	83.2429310153213
2218208208.2082	-1.59971795621805	83.0857319578541
2218248248.24824	-1.60113471996764	82.9520616060202
2218288288.28828	-1.60047862540932	82.865687918519
2218328328.32832	-1.60040496221319	82.6639921600256
2218368368.36836	-1.59564277749177	82.5340288976416
2218408408.4084	-1.59617101693317	82.400900119503
2218448448.44844	-1.60293626666458	82.2804677479047
2218488488.48848	-1.596971834449	82.1258159265129
2218528528.52852	-1.594987670982	82.0296788127127
2218568568.56856	-1.6064274470253	81.9058628932707
2218608608.6086	-1.60640730034692	81.7233395472846
2218648648.64864	-1.60715684455663	81.539420611526
2218688688.68868	-1.60433111050778	81.4188220609954
2218728728.72872	-1.60601178770835	81.2939599958943
2218768768.76876	-1.59642827966864	81.1125825916679
2218808808.8088	-1.60502272084819	81.0877563118684
2218848848.84884	-1.61444047323977	80.8530153938106
2218888888.88888	-1.59293404837246	80.7418928694229
2218928928.92892	-1.60164552406502	80.5826231678273
2218968968.96896	-1.60729806909005	80.513527347523
2219009009.009	-1.59584355995945	80.2488843246332
2219049049.04904	-1.61239038221569	80.18866002075
2219089089.08908	-1.61662619066967	80.054666354774
2219129129.12912	-1.62021608098266	79.9207949421638
2219169169.16916	-1.61892709030414	79.8090099163245
2219209209.2092	-1.60934658955608	79.6664284195559
2219249249.24924	-1.61055706554298	79.4479067798064
2219289289.28928	-1.61417601713278	79.362931289917
2219329329.32932	-1.61900515028873	79.2037366157461
2219369369.36936	-1.61538458764932	79.0741997170926
2219409409.4094	-1.62047779154453	78.9036741660005
2219449449.44944	-1.62461176002413	78.8105859860183
2219489489.48948	-1.60919608605516	78.6632644555875
2219529529.52952	-1.61751550701078	78.464358272665
2219569569.56956	-1.60925575286539	78.3723534957001
2219609609.6096	-1.61940082349538	78.230707028304
2219649649.64964	-1.6192231395828	78.0684628470103
2219689689.68968	-1.61745973420102	77.8852945957209
2219729729.72972	-1.61826487994305	77.7534103330985
2219769769.76976	-1.61642435072321	77.6257333266417
2219809809.8098	-1.6304017274684	77.5493152989084
2219849849.84984	-1.62213292253526	77.3441266737527
2219889889.88988	-1.61332809536177	77.1692968303659
2219929929.92992	-1.61475947007405	77.0476089459075
2219969969.96996	-1.61252984236091	76.9067431086158
2220010010.01	-1.62606239781197	76.7433572574802
2220050050.05004	-1.61459207069862	76.5981159061109
2220090090.09008	-1.61320397051018	76.4560876733543
2220130130.13012	-1.61721529766343	76.3413214411543
2220170170.17016	-1.61768904773558	76.0613615732237
2220210210.2102	-1.62715360946359	75.9660321369046
2220250250.25024	-1.62368489180994	75.8137180830203
2220290290.29028	-1.62025844224786	75.7147719970187
2220330330.33032	-1.62409430205924	75.5904622850761
2220370370.37036	-1.62701033712118	75.5079777057092
2220410410.4104	-1.61951964167366	75.2229089941443
2220450450.45044	-1.62110457324037	75.1710156798474
2220490490.49048	-1.62263210830639	75.0018647142178
2220530530.53052	-1.63774971976352	74.8144976688682
2220570570.57056	-1.62096660061893	74.7111261111257
2220610610.6106	-1.63774223486673	74.5313103404145
2220650650.65064	-1.63485040392668	74.3905032317692
2220690690.69068	-1.63421261882717	74.2556135032427
2220730730.73072	-1.6463957600458	74.1037163319686
2220770770.77076	-1.63350526970941	73.9919481016587
2220810810.8108	-1.63662618169776	73.8075923948554
2220850850.85084	-1.62305446593404	73.6592275386491
2220890890.89088	-1.63484727876356	73.5309239815637
2220930930.93092	-1.63031847892776	73.3093316652989
2220970970.97096	-1.62846457308681	73.2150594753599
2221011011.011	-1.63413197575631	73.0758766126192
2221051051.05104	-1.64220642357573	72.9197255837899
2221091091.09108	-1.64487572934781	72.7641868807534
2221131131.13112	-1.64399153268771	72.5977772443147
2221171171.17116	-1.65696252815838	72.4754223860111
2221211211.2112	-1.64549434445989	72.2839303528901
2221251251.25124	-1.64956165650615	72.2002455960519
2221291291.29128	-1.64793883067791	72.0218003594219
2221331331.33132	-1.6402564178261	71.8109107983537
2221371371.37136	-1.64831453256192	71.6593414957117
2221411411.4114	-1.6484329302726	71.6320514668993
2221451451.45144	-1.63403329486332	71.3303938834898
2221491491.49148	-1.6560341142004	71.2643102158231
2221531531.53152	-1.65475207333726	71.1356875586953
2221571571.57156	-1.64870892558467	70.9745010185692
2221611611.6116	-1.65953348204429	70.8600525913377
2221651651.65164	-1.65778622081494	70.6949558831755
2221691691.69168	-1.64747977791169	70.491541075793
2221731731.73172	-1.65590864535239	70.3351514272433
2221771771.77176	-1.65019988389904	70.198961536242
2221811811.8118	-1.64690729523754	70.0960816563165
2221851851.85184	-1.65952155244316	69.9018545075596
2221891891.89188	-1.65496233866432	69.7698461806503
2221931931.93192	-1.65451651265101	69.6198111744898
2221971971.97196	-1.65308064802295	69.4303565429111
2222012012.012	-1.65686275342879	69.3183484368519
2222052052.05204	-1.66141138591113	69.1236744826085
2222092092.09208	-1.67025362413404	68.9396052898669
2222132132.13212	-1.66483983627836	68.7924215769642
2222172172.17216	-1.6610477512307	68.6116460490381
2222212212.2122	-1.65566806472072	68.4593678688742
2222252252.25224	-1.65891332672599	68.2759024242469
2222292292.29228	-1.66680560940132	68.1896718767297
2222332332.33232	-1.66737349500882	67.9930252468757
2222372372.37236	-1.67064894899104	67.8664926914512
2222412412.41241	-1.67673321256354	67.6866930246204
2222452452.45245	-1.66580859040554	67.5092612884622
2222492492.49249	-1.66431384034262	67.3927223363895
2222532532.53253	-1.67509535777056	67.1661843404695
2222572572.57257	-1.6788991015314	67.0723137230869
2222612612.61261	-1.683628255588	66.9086918006085
2222652652.65265	-1.67499954023764	66.7562429280539
2222692692.69269	-1.66908476772737	66.586066472319
2222732732.73273	-1.67124650460364	66.4008666463045
2222772772.77277	-1.67729808342242	66.2996570075505
2222812812.81281	-1.66923457919956	66.1060042230097
2222852852.85285	-1.67374068615922	65.9146158370469
2222892892.89289	-1.6845783435489	65.7605829257093
2222932932.93293	-1.68471465425726	65.5819812414816
2222972972.97297	-1.68268811006902	65.4144580763117
2223013013.01301	-1.68735584537918	65.3425280609696
2223053053.05305	-1.69903481070867	65.1137267856336
2223093093.09309	-1.6908809477065	64.9418428169862
2223133133.13313	-1.69778573589095	64.8218235924469
2223173173.17317	-1.69154387750161	64.6614291377131
2223213213.21321	-1.68975599312092	64.4826685521845
2223253253.25325	-1.70842607134644	64.3295014405636
2223293293.29329	-1.69869201073115	64.1334889547641
2223333333.33333	-1.69314598735507	63.9729877033044
2223373373.37337	-1.70022591158588	63.8637671894084
2223413413.41341	-1.70294299091433	63.6417529892733
2223453453.45345	-1.7094712482767	63.502319344894
2223493493.49349	-1.70070448817525	63.2648261623772
2223533533.53353	-1.71435258015328	63.125313840325
2223573573.57357	-1.71674320932267	63.0090450739371
2223613613.61361	-1.70417751043946	62.8208913507119
2223653653.65365	-1.70572127130701	62.6224927695287
2223693693.69369	-1.71952923807007	62.4718186581509
2223733733.73373	-1.70489365155606	62.3200538980672
2223773773.77377	-1.71407940439705	62.1661801393795
2223813813.81381	-1.72216707072675	61.9439713516056
2223853853.85385	-1.71721988571795	61.7972767937123
2223893893.89389	-1.71754895746756	61.5864105187726
2223933933.93393	-1.72916004033705	61.496588414075
2223973973.97397	-1.72178634259746	61.2895363184908
2224014014.01401	-1.72078304219533	61.1195659817024
2224054054.05405	-1.73435764249086	60.9273182945537
2224094094.09409	-1.74001427010565	60.7541289103181
2224134134.13413	-1.73582338508665	60.5523161046133
2224174174.17417	-1.73559898182198	60.4138107800453
2224214214.21421	-1.73159531126188	60.2094693663033
2224254254.25425	-1.73157646403903	60.0564988279619
2224294294.29429	-1.74388687296952	59.8853168571854
2224334334.33433	-1.75223264274353	59.7547510712506
2224374374.37437	-1.74738993865161	59.5447455136019
2224414414.41441	-1.74288900977618	59.3090868548176
2224454454.45445	-1.7489527278942	59.1255202076022
2224494494.49449	-1.75002440966796	59.0354460551272
2224534534.53453	-1.74017760482766	58.7765905782813
2224574574.57457	-1.75981123884681	58.663650105935
2224614614.61461	-1.76076717970633	58.4369288992423
2224654654.65465	-1.76732429907659	58.2899703391205
2224694694.69469	-1.75152039837809	58.0728651402194
2224734734.73473	-1.75792339933549	57.881153822849
2224774774.77477	-1.77227183355416	57.6402425946065
2224814814.81481	-1.76516701588722	57.5804869912828
2224854854.85485	-1.76440964802571	57.4117063423317
2224894894.89489	-1.76356112285587	57.2018103912481
