!Agilent N9918A: A.07.57
!Date: Thursday, 18 December 2014 18:14:04
!TimeZone: (GMT+08:00) Kuala Lumpur, Singapore!Model: N9918A
!Serial: MY53103598
!GPS Latitude: 
!GPS Longitude: 
!GPS TimeStamp: 0001-01-01 00:00:00Z
!GPS Seconds Since Last Read: 0
!CHECKSUM:1991412981
!Correction: S11(Rdy)
!S1P File: Measurement: S11:
# Hz S DB R 50
2100000000	-1.08166152468832	-117.240822594517
2100187500	-1.08781640241067	-117.773384151993
2100375000	-1.07891697205235	-118.26023964229
2100562500	-1.08138800361654	-118.743419591046
2100750000	-1.07324817411175	-119.2668925806
2100937500	-1.08343768919759	-119.775007277434
2101125000	-1.07542653007124	-120.296480331404
2101312500	-1.08267970232601	-120.775255790604
2101500000	-1.09084748420738	-121.305524676543
2101687500	-1.08616727699268	-121.755763517284
2101875000	-1.07970216628691	-122.284968552802
2102062500	-1.0832824720595	-122.74909997625
2102250000	-1.08776884687012	-123.254159147362
2102437500	-1.08345138512065	-123.792610653131
2102625000	-1.08703030681105	-124.264423091714
2102812500	-1.08445016360437	-124.76729047087
2103000000	-1.08855737565315	-125.257364587788
2103187500	-1.08407779798186	-125.765232625991
2103375000	-1.08859711265629	-126.28050747219
2103562500	-1.08790682415182	-126.783812454852
2103750000	-1.08951870054484	-127.34199737043
2103937500	-1.08514619119525	-127.842888485101
2104125000	-1.0826903490637	-128.338363840697
2104312500	-1.08832922323092	-128.822991776763
2104500000	-1.08285540438429	-129.325812826993
2104687500	-1.08351786952801	-129.829507817651
2104875000	-1.08434761569579	-130.350103107547
2105062500	-1.08666001436908	-130.868766250217
2105250000	-1.08204541606687	-131.359793578289
2105437500	-1.08792847658366	-131.859281770037
2105625000	-1.0856449306501	-132.389001062404
2105812500	-1.08297350881794	-132.861877193743
2106000000	-1.08012807543704	-133.424749204238
2106187500	-1.08274552303122	-133.878717027685
2106375000	-1.08150313701753	-134.42442270997
2106562500	-1.0859424718492	-134.918557632758
2106750000	-1.07981373633594	-135.438522696935
2106937500	-1.08220121383988	-135.927601204411
2107125000	-1.08334113987465	-136.446761455095
2107312500	-1.08367200583103	-136.94238181156
2107500000	-1.08150327013845	-137.449317995611
2107687500	-1.07849377698123	-137.95507167048
2107875000	-1.08042421939885	-138.46618163615
2108062500	-1.08026028467153	-138.970510811472
2108250000	-1.08011475800001	-139.5122042012
2108437500	-1.07935456308529	-139.984822260977
2108625000	-1.07774686444213	-140.52531767238
2108812500	-1.07521496817795	-141.009062613779
2109000000	-1.0804087390507	-141.515634721544
2109187500	-1.07199293294149	-142.042541321574
2109375000	-1.07940428679577	-142.538741692655
2109562500	-1.0813436095658	-143.062437874961
2109750000	-1.07351174537365	-143.574993939109
2109937500	-1.07356894688073	-144.077002699896
2110125000	-1.07333624769047	-144.590443805867
2110312500	-1.07564338189886	-145.104864422288
2110500000	-1.07599254040401	-145.637717661394
2110687500	-1.06800268185855	-146.110458168782
2110875000	-1.07725245269675	-146.620704123996
2111062500	-1.0702107614876	-147.161902457009
2111250000	-1.07040800226578	-147.691465469322
2111437500	-1.07544142184867	-148.150170151996
2111625000	-1.07124084850216	-148.710867406617
2111812500	-1.07127892134157	-149.217699177199
2112000000	-1.0735178317214	-149.713761152913
2112187500	-1.06971520484175	-150.258382145754
2112375000	-1.07075356426342	-150.745060813642
2112562500	-1.07006213522017	-151.276433731065
2112750000	-1.07019942748163	-151.763569783118
2112937500	-1.06977279146795	-152.318240421969
2113125000	-1.06520616275328	-152.78597634623
2113312500	-1.06459099346151	-153.300517141133
2113500000	-1.06697602867374	-153.79687687754
2113687500	-1.0662410649214	-154.30700710627
2113875000	-1.06271178701124	-154.871002338398
2114062500	-1.06679254298518	-155.339221002994
2114250000	-1.06549491542788	-155.889671380389
2114437500	-1.06351928726584	-156.375325481496
2114625000	-1.05866606984533	-156.915668929821
2114812500	-1.0562130637231	-157.418632396089
2115000000	-1.0581346979032	-157.965268178961
2115187500	-1.06054702884579	-158.423545935357
2115375000	-1.0643251769805	-158.973088372657
2115562500	-1.06329557633098	-159.477662443566
2115750000	-1.06322318760856	-160.025600233886
2115937500	-1.05337494626296	-160.513333441834
2116125000	-1.0550588346996	-161.029708642139
2116312500	-1.05871589549692	-161.539479062206
2116500000	-1.05812058428395	-162.10073962676
2116687500	-1.05189701407873	-162.61578842586
2116875000	-1.05936723736481	-163.113242943873
2117062500	-1.0545319428764	-163.627366039235
2117250000	-1.05128520834754	-164.124670487853
2117437500	-1.05576489760515	-164.599042154447
2117625000	-1.05415586695059	-165.148247245808
2117812500	-1.05599745216511	-165.702609798753
2118000000	-1.04866138669983	-166.2049243983
2118187500	-1.05620190771742	-166.701122794347
2118375000	-1.05212784789717	-167.224127499546
2118562500	-1.05766070980793	-167.745720982971
2118750000	-1.05267100753877	-168.245659331669
2118937500	-1.05008047539761	-168.80498056162
2119125000	-1.06330618603131	-169.285349944211
2119312500	-1.05673609832529	-169.811075313331
2119500000	-1.04851440752582	-170.335160086798
2119687500	-1.05616183176445	-170.852450750843
2119875000	-1.06496598778406	-171.394737537688
2120062500	-1.05046952196296	-171.94479736291
2120250000	-1.05127686002949	-172.448023775961
2120437500	-1.05296929004121	-172.883811147065
2120625000	-1.046976494672	-173.46374339385
2120812500	-1.0503962013625	-173.990039201532
2121000000	-1.05321986926394	-174.51035023686
2121187500	-1.04549478591822	-175.004792268492
2121375000	-1.04812065911977	-175.569102370675
2121562500	-1.05182102147	-176.046836886165
2121750000	-1.04337860159947	-176.551250336778
2121937500	-1.0391123558842	-177.090952925297
2122125000	-1.04986331994577	-177.632058280383
2122312500	-1.04464437557959	-178.157620768517
2122500000	-1.04361090467837	-178.675748348116
2122687500	-1.04287725889727	-179.221471798658
2122875000	-1.04013842441248	-179.712754590997
2123062500	-1.04379774503924	179.82199068201
2123250000	-1.04659785890765	179.335706226469
2123437500	-1.04014846911003	178.768207030126
2123625000	-1.04379835292254	178.175721328034
2123812500	-1.03838559706734	177.742593892075
2124000000	-1.04848908726526	177.169388509368
2124187500	-1.05222729708506	176.676122909827
2124375000	-1.04728998029389	176.106964251341
2124562500	-1.04364822819829	175.639407445631
2124750000	-1.04861309980637	175.070137588893
2124937500	-1.05613020355275	174.529462747148
2125125000	-1.05120476058078	173.987214707583
2125312500	-1.04652584753671	173.467761355031
2125500000	-1.04281433192505	172.957251978519
2125687500	-1.05102802574565	172.399560342992
2125875000	-1.05189377951918	171.935622334994
2126062500	-1.0536707894581	171.385896079684
2126250000	-1.06141822130575	170.808918149697
2126437500	-1.05660625398204	170.293933958402
2126625000	-1.05935338897316	169.734683849789
2126812500	-1.05659106765543	169.172509944263
2127000000	-1.06087919442252	168.68235938925
2127187500	-1.05018327152698	168.154448070769
2127375000	-1.06151020682834	167.614742824138
2127562500	-1.05887319122116	167.05141878736
2127750000	-1.05338559257808	166.519834254177
2127937500	-1.06289148550251	165.956912481008
2128125000	-1.05401551404616	165.436152149864
2128312500	-1.05739232796525	164.907668923146
2128500000	-1.05887084596068	164.322046204452
2128687500	-1.06464102477692	163.803209169919
2128875000	-1.06936626614268	163.185068590707
2129062500	-1.07113239527681	162.64398022912
2129250000	-1.07932465247152	162.140874253836
2129437500	-1.07475292036281	161.513864177476
2129625000	-1.08449008470281	161.022386359506
2129812500	-1.0813061617817	160.482328040978
2130000000	-1.0924266536967	159.957433549605
2130187500	-1.09663040379221	159.400496502562
2130375000	-1.09140064048559	158.85555782999
2130562500	-1.1073332756773	158.323079983877
2130750000	-1.10866898193134	157.790060318676
2130937500	-1.10758058829497	157.233504382279
2131125000	-1.10463664152029	156.641716192511
2131312500	-1.09778438261505	156.17148480886
2131500000	-1.10796523579942	155.587081471369
2131687500	-1.11302355601104	155.034952538764
2131875000	-1.11272197909303	154.501929026024
2132062500	-1.12310207093858	153.988944381993
2132250000	-1.12630599428926	153.479490753282
2132437500	-1.12097383498609	152.892613165014
2132625000	-1.11090838327429	152.370815335631
2132812500	-1.12778153919839	151.800868638523
2133000000	-1.14079755328587	151.276192074156
2133187500	-1.13878889859583	150.734373340196
2133375000	-1.1339869292025	150.187048864522
2133562500	-1.1356446732739	149.660570568122
2133750000	-1.13974981786137	149.102479090999
2133937500	-1.14679661813898	148.55676075909
2134125000	-1.14852250966932	147.96647019594
2134312500	-1.1457867534352	147.40304107072
2134500000	-1.14445545060983	146.899001214651
2134687500	-1.13919636053799	146.400657105809
2134875000	-1.15192697192784	145.869700513255
2135062500	-1.15061141937626	145.263628925975
2135250000	-1.15994008331434	144.753650632074
2135437500	-1.16096584387071	144.197815752713
2135625000	-1.15709359266117	143.641746967408
2135812500	-1.16737422671167	143.145584556384
2136000000	-1.17011920675815	142.621711036298
2136187500	-1.16410265665727	142.11718330395
2136375000	-1.15773218529473	141.528133808097
2136562500	-1.1610147897831	141.006863962173
2136750000	-1.16341014547319	140.467372002163
2136937500	-1.16017467271443	139.927173669273
2137125000	-1.17156127963436	139.353339244798
2137312500	-1.1695989686658	138.869055268614
2137500000	-1.17361083778767	138.298529347581
2137687500	-1.17120663708767	137.732196976161
2137875000	-1.17660559350039	137.147931298656
2138062500	-1.18107562221834	136.55707586522
2138250000	-1.19194478781164	136.062560385752
2138437500	-1.18100852549285	135.485524637961
2138625000	-1.18442983742694	134.928326967327
2138812500	-1.19315926234676	134.405745353981
2139000000	-1.19796900567432	133.942032561007
2139187500	-1.19726513417837	133.372405383046
2139375000	-1.19199077478464	132.766038847336
2139562500	-1.19481801055377	132.194860638622
2139750000	-1.19619997822641	131.68030499146
2139937500	-1.20816130796135	131.139569985143
2140125000	-1.21140903389509	130.578170897468
2140312500	-1.21014576331329	130.00768068727
2140500000	-1.21573857978032	129.514414732865
2140687500	-1.20844800303104	128.89584587512
2140875000	-1.21861376302242	128.317702651768
2141062500	-1.21895239512647	127.825193264431
2141250000	-1.23533603760773	127.288726038562
2141437500	-1.2294242885943	126.690408067043
2141625000	-1.2329414361031	126.141330214488
2141812500	-1.22835900337214	125.595339498956
2142000000	-1.23145793031787	125.022876625107
2142187500	-1.23493283282444	124.499277579033
2142375000	-1.23350564465307	123.903072231926
2142562500	-1.24749836644474	123.345067131963
2142750000	-1.24548814822113	122.807862972249
2142937500	-1.24911708534911	122.25843918823
2143125000	-1.24898657035508	121.679499974742
2143312500	-1.2688050333973	121.144917928583
2143500000	-1.25815869747041	120.557263472197
2143687500	-1.26145837482217	120.04535751461
2143875000	-1.26606774905271	119.483542786233
2144062500	-1.27775059609921	118.930918868093
2144250000	-1.26596329621068	118.32314912755
2144437500	-1.26861076391589	117.810611742001
2144625000	-1.27247865142822	117.207155674306
2144812500	-1.28269428678717	116.632687208573
2145000000	-1.28614073729036	116.092532973058
2145187500	-1.28145168687166	115.503069948493
2145375000	-1.28463342104927	114.981448510653
2145562500	-1.2948934023289	114.432239673315
2145750000	-1.28851290011539	113.810135291702
2145937500	-1.29076125464555	113.315268708319
2146125000	-1.30116301341084	112.762756075611
2146312500	-1.29628156423209	112.169296221904
2146500000	-1.29633969010115	111.654470107524
2146687500	-1.30179901879972	111.037796109485
2146875000	-1.30388111192851	110.515245974983
2147062500	-1.30580985866629	109.964464017262
2147250000	-1.31468066980763	109.4473000138
2147437500	-1.30949083579541	108.859215246741
2147625000	-1.30720396721532	108.329986796394
2147812500	-1.31429352326773	107.751832699399
2148000000	-1.31754944017314	107.16822933038
2148187500	-1.31656312246906	106.596992452505
2148375000	-1.32264077912725	106.046665660398
2148562500	-1.31670195329377	105.43524324776
2148750000	-1.32462293761436	104.941942239009
2148937500	-1.32075068413345	104.361536416286
2149125000	-1.32460300037717	103.797267158609
2149312500	-1.33407939232407	103.265598806383
2149500000	-1.33677311376779	102.684223118278
2149687500	-1.33487261622387	102.139596636728
2149875000	-1.33836332948781	101.558257344118
2150062500	-1.34200361400071	100.992171654175
2150250000	-1.34121009241278	100.459783837776
2150437500	-1.34247043305004	99.8951174971523
2150625000	-1.34395885784472	99.3209782771358
2150812500	-1.3473925561419	98.7651617695765
2151000000	-1.34671015842447	98.1850269339443
2151187500	-1.35531816128044	97.6178340299642
2151375000	-1.35903047322709	97.1033957374655
2151562500	-1.34694368721501	96.5212299776478
2151750000	-1.35401057810524	95.9624076454983
2151937500	-1.35618260786438	95.3621088210072
2152125000	-1.35721360306287	94.8335770545137
2152312500	-1.36789193741094	94.3072001446855
2152500000	-1.36151150592842	93.7191103590704
2152687500	-1.36577410597586	93.1507385887458
2152875000	-1.36891993340014	92.579555294324
2153062500	-1.36717809758544	92.050477657409
2153250000	-1.36859951979161	91.4850462543312
2153437500	-1.37110098466278	90.8751067765258
2153625000	-1.37890837089404	90.3888372990207
2153812500	-1.37631775955469	89.7905209728216
2154000000	-1.38055073852188	89.2539776861667
2154187500	-1.37969284288775	88.6642441408976
2154375000	-1.38513902866632	88.071838903313
2154562500	-1.38127404358831	87.5437300326565
2154750000	-1.38253404580842	86.9642791410535
2154937500	-1.39113892521281	86.3875788591793
2155125000	-1.38442680897806	85.8092855097781
2155312500	-1.38864608503131	85.2710452784436
2155500000	-1.39022984537187	84.688831827368
2155687500	-1.39388543164562	84.1398470699441
2155875000	-1.39623001386378	83.5317528196942
2156062500	-1.39398330599529	83.0209278119598
2156250000	-1.39638117973591	82.4338604020241
2156437500	-1.3981771660721	81.8802022293516
2156625000	-1.39663982135285	81.3530586977158
2156812500	-1.40683636223356	80.7776921994461
2157000000	-1.39950623464203	80.1689950481023
2157187500	-1.40178311465187	79.6451635689218
2157375000	-1.39634366599471	79.063207831905
2157562500	-1.40390872167792	78.5053962035558
2157750000	-1.40441723614162	78.0016727837243
2157937500	-1.40624273704742	77.3925759124135
2158125000	-1.40274063690519	76.7676560281498
2158312500	-1.41201447023918	76.3415931442239
2158500000	-1.40698354055122	75.7274900310062
2158687500	-1.40821185282627	75.1717901432586
2158875000	-1.40454209708031	74.6264739731852
2159062500	-1.41032440857512	74.0392960541308
2159250000	-1.40412548961217	73.4597609909399
2159437500	-1.41615165113733	72.8822383448418
2159625000	-1.4090002093387	72.3393589815672
2159812500	-1.41619854197127	71.7962921215663
2160000000	-1.41191889649863	71.2191325869256
2160187500	-1.41655647523899	70.6454902938766
2160375000	-1.42168992725206	70.1299517804648
2160562500	-1.4130023228539	69.532099654548
2160750000	-1.41715961531562	68.9744315291403
2160937500	-1.41814815842403	68.4677278980513
2161125000	-1.41702800216489	67.8711676533224
2161312500	-1.41448112703437	67.2868961469668
2161500000	-1.4183285638809	66.709949172532
2161687500	-1.41861817043033	66.1785179405736
2161875000	-1.41990174236985	65.639549305192
2162062500	-1.42400345641621	65.1229464808141
2162250000	-1.41835931464677	64.5150459681819
2162437500	-1.42533375871519	63.9676830548446
2162625000	-1.42113912330384	63.3837773205432
2162812500	-1.42060531133293	62.7933171536263
2163000000	-1.41708155510092	62.2892544608225
2163187500	-1.41880665287332	61.6748399898458
2163375000	-1.42608484118996	61.1541620669715
2163562500	-1.41638707918719	60.5781116525012
2163750000	-1.41894171043041	60.0191062493618
2163937500	-1.43131318941773	59.4916331327285
2164125000	-1.42200557882905	58.9145961329502
2164312500	-1.41529680506459	58.3598590702461
2164500000	-1.41932514349525	57.7682837324737
2164687500	-1.41931610666582	57.213366311704
2164875000	-1.42791631997101	56.6344879057672
2165062500	-1.42279203046924	56.1159229170257
2165250000	-1.42472009381837	55.5112040057193
2165437500	-1.42150404701706	54.9270249067008
2165625000	-1.41951416006561	54.3780496381056
2165812500	-1.42024901456433	53.7983020604131
2166000000	-1.42513127272413	53.2512006242487
2166187500	-1.41962351953248	52.7006373774119
2166375000	-1.42140223256166	52.1475194070913
2166562500	-1.42282556748516	51.6162063468958
2166750000	-1.42689508079803	51.0337875834178
2166937500	-1.42951666972078	50.498009015304
2167125000	-1.43094758136886	49.9335986110896
2167312500	-1.41391455597549	49.3641424686346
2167500000	-1.40922569332478	48.8028565065997
2167687500	-1.41998446993428	48.2143083041384
2167875000	-1.42101548835911	47.6814968153252
2168062500	-1.41479277893768	47.1400300809019
2168250000	-1.41989860638711	46.5463437869047
2168437500	-1.42311305951851	46.0313850401744
2168625000	-1.42847834421732	45.4303440389318
2168812500	-1.41326395482862	44.8797590268663
2169000000	-1.41696993584703	44.3589894562532
2169187500	-1.4198368054283	43.7914182327269
2169375000	-1.40774532276403	43.230333642821
2169562500	-1.40221732043396	42.7539304634409
2169750000	-1.40354720006222	42.3778259221551
2169937500	-1.38652730112736	41.9632295638353
2170125000	-1.39547506176075	41.5565438585758
2170312500	-1.38807046732062	41.1260957588839
2170500000	-1.38540331116814	40.7799354460361
2170687500	-1.3977410034614	40.4245516781546
2170875000	-1.38180290730691	39.969668044126
2171062500	-1.3708136552098	39.3800492818216
2171250000	-1.38281047918511	38.9159743400381
2171437500	-1.36780425383748	38.3603973997533
2171625000	-1.38536422938216	37.9175356687615
2171812500	-1.3867333846486	37.3431342283914
2172000000	-1.38543290341346	36.856164895572
2172187500	-1.37206323702186	36.2957222231303
2172375000	-1.35977773400876	35.7174809974357
2172562500	-1.37974738413057	35.236314639791
2172750000	-1.36956065210411	34.6548155440909
2172937500	-1.37298507048227	34.0860708674538
2173125000	-1.38056009338727	33.6118401568692
2173312500	-1.37960467925445	33.0092942875658
2173500000	-1.37612010110942	32.4630705308163
2173687500	-1.36956996329068	31.9227473242921
2173875000	-1.37366813833508	31.3592741103545
2174062500	-1.36509192790083	30.862846538089
2174250000	-1.3784856084667	30.3270289491048
2174437500	-1.37597435935973	29.7062426022855
2174625000	-1.37446140802799	29.1498959129554
2174812500	-1.36273020886939	28.5895458553823
2175000000	-1.36877919135316	28.0778094955287
2175187500	-1.3628002392955	27.4885715149104
2175375000	-1.36312193620455	26.9567519467666
2175562500	-1.38138058943136	26.3805069059694
2175750000	-1.36953741585878	25.8268438693307
2175937500	-1.36433129152287	25.2455592182922
2176125000	-1.37537962923875	24.7458163971167
2176312500	-1.36317671814714	24.1282542886638
2176500000	-1.37286426751565	23.6279199155604
2176687500	-1.37927262892485	23.0927254528714
2176875000	-1.36665377996877	22.4794982276663
2177062500	-1.37746984371578	21.9790306201737
2177250000	-1.3718938250636	21.3773135943263
2177437500	-1.36421656944095	20.8366047598015
2177625000	-1.36493056278411	20.2558478944459
2177812500	-1.36579928509897	19.7224778989876
2178000000	-1.36678897637518	19.1449177679498
