!Agilent N9918A: A.07.57
!Date: Thursday, 18 December 2014 18:31:04
!TimeZone: (GMT+08:00) Kuala Lumpur, Singapore!Model: N9918A
!Serial: MY53103598
!GPS Latitude: 
!GPS Longitude: 
!GPS TimeStamp: 0001-01-01 00:00:00Z
!GPS Seconds Since Last Read: 0
!CHECKSUM:1724242396
!Correction: S11(Rdy)
!S1P File: Measurement: S11:
# Hz S DB R 50
2100000000	-0.73608564572981	-142.759505646906
2100187500	-0.741502850140224	-143.160523798077
2100375000	-0.745453945926063	-143.587113747085
2100562500	-0.741739802951763	-144.058530558554
2100750000	-0.74195517623309	-144.470315364087
2100937500	-0.744908859005994	-144.885527162491
2101125000	-0.742917903336368	-145.26143626539
2101312500	-0.742163390349659	-145.667378624717
2101500000	-0.74332860034514	-146.115641085105
2101687500	-0.741341557033769	-146.530479933168
2101875000	-0.742632126401111	-146.942566729795
2102062500	-0.742710462321671	-147.349213510594
2102250000	-0.746897858582734	-147.797407301754
2102437500	-0.749545290530565	-148.189379682994
2102625000	-0.741736768230183	-148.622681089653
2102812500	-0.745134210682615	-149.048676619315
2103000000	-0.742120552171675	-149.422796730661
2103187500	-0.744544667174418	-149.86962052048
2103375000	-0.744979581758325	-150.299665053818
2103562500	-0.743945298546546	-150.69275039402
2103750000	-0.745717056153557	-151.153012920854
2103937500	-0.746092391567161	-151.569564369536
2104125000	-0.74996941938953	-151.989543329088
2104312500	-0.74212139864604	-152.41242797708
2104500000	-0.742660746999045	-152.826355801073
2104687500	-0.748082609251022	-153.219355689169
2104875000	-0.739969194852154	-153.671398480103
2105062500	-0.745167049100272	-154.111310742144
2105250000	-0.742782083676189	-154.509957093593
2105437500	-0.740719310360169	-154.939133988354
2105625000	-0.749766818913409	-155.376592622292
2105812500	-0.744129107779633	-155.779096624738
2106000000	-0.737077966057088	-156.149836676812
2106187500	-0.740637410915053	-156.638990975826
2106375000	-0.73931249098009	-157.029955742888
2106562500	-0.740296769208644	-157.445013933503
2106750000	-0.742159513564023	-157.908127453207
2106937500	-0.741959888899674	-158.334179780818
2107125000	-0.73768451695446	-158.759409360834
2107312500	-0.738554643604127	-159.161989321748
2107500000	-0.740094305435929	-159.55031078803
2107687500	-0.74256093241845	-160.047126143902
2107875000	-0.737369138356987	-160.431029720985
2108062500	-0.742846670961683	-160.849661187782
2108250000	-0.742784994967331	-161.291383520232
2108437500	-0.738834892984448	-161.684591499791
2108625000	-0.740530287283045	-162.108762707991
2108812500	-0.735115689696552	-162.501734370489
2109000000	-0.740311280501529	-162.973831845679
2109187500	-0.73959764819172	-163.406470705304
2109375000	-0.737009881422176	-163.805875019486
2109562500	-0.735688959593134	-164.256152844427
2109750000	-0.735564887618722	-164.639807587297
2109937500	-0.737863862414777	-165.086132707544
2110125000	-0.733819978974892	-165.488974440282
2110312500	-0.73077931198585	-165.910856324041
2110500000	-0.729527868312296	-166.32332608269
2110687500	-0.734557044381361	-166.753715967113
2110875000	-0.730495248663979	-167.175278945021
2111062500	-0.733998728813836	-167.608134384601
2111250000	-0.730871045267013	-168.054536690631
2111437500	-0.732963746235775	-168.489586895516
2111625000	-0.735972266371851	-168.874151534529
2111812500	-0.729375308898142	-169.32356467964
2112000000	-0.724627030606416	-169.739594591179
2112187500	-0.728047028294164	-170.184291843495
2112375000	-0.723129660115181	-170.622575344596
2112562500	-0.724066382250351	-171.016532844163
2112750000	-0.726498212821111	-171.45836250733
2112937500	-0.720828247263861	-171.87282696229
2113125000	-0.730748093631613	-172.273086813298
2113312500	-0.725100511307976	-172.714239613757
2113500000	-0.724154992083452	-173.139001246798
2113687500	-0.724325867622453	-173.535764061797
2113875000	-0.730922317068443	-173.990648373361
2114062500	-0.719528054010516	-174.451161385486
2114250000	-0.720895471215916	-174.889997810013
2114437500	-0.720159120853183	-175.236667499882
2114625000	-0.718050740771285	-175.655943622621
2114812500	-0.722827682244756	-176.107967326554
2115000000	-0.721680662301891	-176.540462582415
2115187500	-0.719683259976674	-176.934722476081
2115375000	-0.721970429335545	-177.402162001734
2115562500	-0.720880209871871	-177.816632208084
2115750000	-0.719221653543885	-178.239569131286
2115937500	-0.711915842027826	-178.710021391481
2116125000	-0.721360680143737	-179.12565278782
2116312500	-0.720510252206659	-179.507225222314
2116500000	-0.722378606039013	-179.942957690163
2116687500	-0.719129654049826	179.600944976822
2116875000	-0.71868736805927	179.191381141095
2117062500	-0.717468232148718	178.736515199928
2117250000	-0.712718154622231	178.327687695834
2117437500	-0.716913254018373	177.870175099139
2117625000	-0.715174205455207	177.503656043957
2117812500	-0.722545509196709	177.066116249481
2118000000	-0.715865677779288	176.59576798103
2118187500	-0.712907864431849	176.151704328905
2118375000	-0.712802191245446	175.755335932521
2118562500	-0.713204709208617	175.330681938475
2118750000	-0.714303847403367	174.884852422131
2118937500	-0.721411436910972	174.445076790856
2119125000	-0.722263905807424	174.075287433364
2119312500	-0.717190458853799	173.584437656622
2119500000	-0.72598900753991	173.225926794374
2119687500	-0.712449603351228	172.76260712586
2119875000	-0.716743087743059	172.275317539171
2120062500	-0.713823779278474	171.917437684477
2120250000	-0.723744115120452	171.438043628199
2120437500	-0.712710804638035	171.034056032314
2120625000	-0.713142337342218	170.641468016441
2120812500	-0.723633105741327	170.15298181847
2121000000	-0.72434221347117	169.682291879935
2121187500	-0.704544629862571	169.340625465626
2121375000	-0.712295812071713	168.880294418723
2121562500	-0.716694642634924	168.435144026834
2121750000	-0.705184684626777	167.994547415946
2121937500	-0.708192988959942	167.59908626218
2122125000	-0.716242812568152	167.1307338508
2122312500	-0.708969631984928	166.70797167125
2122500000	-0.709111808971344	166.28153563498
2122687500	-0.711022508168621	165.876971925857
2122875000	-0.709126914822489	165.495823146905
2123062500	-0.714629865654697	165.004899185129
2123250000	-0.712142487925586	164.587160237794
2123437500	-0.718631338037593	164.170799275985
2123625000	-0.704105855947244	163.741934992631
2123812500	-0.706818079425688	163.30030172612
2124000000	-0.698523024507426	162.868868271738
2124187500	-0.714286630936507	162.45460680948
2124375000	-0.70524462931302	162.052901041054
2124562500	-0.718098043155809	161.551086093061
2124750000	-0.71530573262218	161.157993822484
2124937500	-0.704923672816857	160.693037517671
2125125000	-0.726940301241816	160.324720585171
2125312500	-0.715865212435887	159.834940064931
2125500000	-0.709821218719998	159.380782235273
2125687500	-0.725207460659999	158.978461715523
2125875000	-0.727811084410666	158.515736579186
2126062500	-0.724219474558313	158.042855292325
2126250000	-0.725353126406559	157.705725338797
2126437500	-0.715497305298867	157.160521428146
2126625000	-0.735474779517832	156.766834254486
2126812500	-0.722375323920116	156.319676160242
2127000000	-0.720640125911781	155.873671372679
2127187500	-0.731930460205173	155.431006066814
2127375000	-0.727298691424891	154.984588989075
2127562500	-0.719097848911131	154.552168653865
2127750000	-0.73043577829532	154.060566816218
2127937500	-0.721864761649861	153.58113876479
2128125000	-0.729468305212537	153.183703565364
2128312500	-0.733329269936894	152.725021008665
2128500000	-0.736827750953204	152.251886003104
2128687500	-0.724243438838208	151.774873186125
2128875000	-0.733263438134845	151.377579252678
2129062500	-0.739309016549018	150.884608921937
2129250000	-0.751320660809358	150.436073121657
2129437500	-0.75607235277194	149.896385561435
2129625000	-0.755576863236205	149.488430409615
2129812500	-0.755006003520107	149.034811681025
2130000000	-0.759469471286094	148.571846304376
2130187500	-0.762152518209441	148.101388612281
2130375000	-0.766891210294158	147.667068902021
2130562500	-0.768950540448557	147.230749519773
2130750000	-0.780613743367842	146.764246042011
2130937500	-0.774222846280158	146.339772861709
2131125000	-0.775906860595937	145.897303212355
2131312500	-0.785599977789915	145.407969385138
2131500000	-0.779076153743154	144.938652008222
2131687500	-0.787044509002901	144.445936924806
2131875000	-0.789300170267561	144.092023846278
2132062500	-0.793255301019905	143.630694770771
2132250000	-0.793226790130735	143.196192177614
2132437500	-0.797828250515113	142.73309310079
2132625000	-0.807824662426683	142.305390615771
2132812500	-0.808051207505594	141.806523916227
2133000000	-0.813511859283562	141.40022613066
2133187500	-0.813124739293309	140.921481569757
2133375000	-0.821620583465795	140.447965562265
2133562500	-0.823104689472228	140.037466488943
2133750000	-0.814612217542912	139.57836619445
2133937500	-0.818298743905693	139.159493627394
2134125000	-0.816759232881205	138.680116369454
2134312500	-0.823696901655472	138.209772028057
2134500000	-0.821613294369401	137.805317899396
2134687500	-0.823284901697305	137.281406602188
2134875000	-0.830300292323582	136.912655851464
2135062500	-0.823890660246401	136.457185368345
2135250000	-0.832254361622102	135.98554600989
2135437500	-0.845163277509321	135.550273814296
2135625000	-0.848454767321842	135.113460816024
2135812500	-0.831249689414858	134.708908918843
2136000000	-0.841303925658803	134.25912601566
2136187500	-0.839533687403439	133.842993424864
2136375000	-0.847365318711318	133.338783203602
2136562500	-0.833463640009423	132.959488609222
2136750000	-0.836175337735183	132.475275935329
2136937500	-0.846214319922299	132.03850705678
2137125000	-0.857833169267837	131.546946425682
2137312500	-0.853629463723156	131.108692948353
2137500000	-0.859949417739234	130.651292269347
2137687500	-0.863024322611663	130.236719459917
2137875000	-0.863426941604611	129.793992101935
2138062500	-0.862984113151164	129.324738412987
2138250000	-0.867133509951679	128.842306097391
2138437500	-0.862727238803715	128.440531363567
2138625000	-0.865814307921184	127.937783538961
2138812500	-0.86271107284336	127.542116151722
2139000000	-0.870657739835223	127.082368599706
2139187500	-0.876374504354447	126.606835329626
2139375000	-0.874771776549857	126.176028203797
2139562500	-0.873303383560828	125.743951672069
2139750000	-0.882972261103094	125.261202848726
2139937500	-0.884935754745476	124.821739405469
2140125000	-0.888951564577646	124.362740503593
2140312500	-0.885897703860527	123.90916320512
2140500000	-0.884316969018725	123.45266530696
2140687500	-0.882080599164268	123.01807151378
2140875000	-0.886340571380871	122.558164621255
2141062500	-0.900825109309102	122.141957335505
2141250000	-0.907686414014639	121.681251522717
2141437500	-0.902026127859144	121.204512722139
2141625000	-0.902723127577371	120.699777940578
2141812500	-0.91865418264904	120.326753700171
2142000000	-0.909875080165898	119.852459047962
2142187500	-0.916696570978129	119.382720435297
2142375000	-0.919496933376474	118.895787112477
2142562500	-0.918217949857357	118.490416091686
2142750000	-0.915750150912204	117.997237777415
2142937500	-0.920711860114001	117.578652174852
2143125000	-0.916851165030743	117.116088575737
2143312500	-0.924490346890219	116.637766407416
2143500000	-0.934602905598704	116.180321222905
2143687500	-0.93662123136338	115.727996677963
2143875000	-0.942404353871847	115.281423654653
2144062500	-0.940546781791559	114.827534733576
2144250000	-0.940626077123898	114.351061263577
2144437500	-0.944366155179458	113.904393217581
2144625000	-0.943991330028472	113.437785857345
2144812500	-0.946738913649364	112.994129345723
2145000000	-0.953370288391262	112.481785865457
2145187500	-0.95677283503385	112.060975045106
2145375000	-0.959685367597566	111.634878378396
2145562500	-0.960574753821452	111.175473855256
2145750000	-0.95944703351078	110.683375811302
2145937500	-0.958688654394022	110.207017654219
2146125000	-0.964732273035928	109.785960412108
2146312500	-0.967173130148464	109.32607612637
2146500000	-0.96140116034594	108.874005416091
2146687500	-0.962466161761972	108.407816193691
2146875000	-0.972392834461045	107.98380695516
2147062500	-0.9635943588109	107.47133654277
2147250000	-0.971943176649481	107.024267272634
2147437500	-0.971346453467803	106.605140717362
2147625000	-0.978019777929098	106.110283741178
2147812500	-0.983384382004824	105.667045607318
2148000000	-0.981346221587093	105.216975870891
2148187500	-0.981125840989089	104.779341497637
2148375000	-0.984005066607864	104.327562493004
2148562500	-0.987205707686919	103.842023511678
2148750000	-0.979718553684719	103.370644318087
2148937500	-0.985868622448842	102.929542407945
2149125000	-0.988027132478189	102.511632418555
2149312500	-0.994520813384592	102.04949352096
2149500000	-0.986381734131832	101.582073745808
2149687500	-1.00118048453507	101.134040941683
2149875000	-1.00073838158091	100.667247480182
2150062500	-0.99669294668827	100.195076206056
2150250000	-0.999633924626963	99.7578882279934
2150437500	-1.00401951176603	99.2778705482526
2150625000	-1.00438351765742	98.7895537981148
2150812500	-0.996731434333494	98.3853870425756
2151000000	-1.00762437070718	97.9216229254132
2151187500	-1.00961077199863	97.4854617207757
2151375000	-1.01197307664599	96.9724285927068
2151562500	-1.01388389041016	96.5393279315545
2151750000	-1.01434319493603	96.1023972617425
2151937500	-1.00554885534134	95.6674687732508
2152125000	-1.01607230869557	95.1781524574279
2152312500	-1.01786332100241	94.7290157941629
2152500000	-1.01822030032588	94.292076145184
2152687500	-1.02016821314606	93.7547376888927
2152875000	-1.02379747522097	93.3512020788767
2153062500	-1.0226803195207	92.918289828081
2153250000	-1.02917359323355	92.4708933437306
2153437500	-1.03259211763181	92.0220336171771
2153625000	-1.03138201811472	91.5509685382043
2153812500	-1.02891646097888	91.0467788501616
2154000000	-1.03041351144099	90.6448756818639
2154187500	-1.03158895349381	90.1697621494714
2154375000	-1.03321888679807	89.7263884960641
2154562500	-1.03705053027963	89.2341111476085
2154750000	-1.03489262276617	88.7774112977144
2154937500	-1.0385659479051	88.3111777268615
2155125000	-1.04289274148492	87.8496849416194
2155312500	-1.04547047846201	87.3972266589345
2155500000	-1.04385451045379	86.9242171984559
2155687500	-1.04211263196711	86.4783263545437
2155875000	-1.04484362285678	86.0455485697501
2156062500	-1.04724889819707	85.5833408524821
2156250000	-1.04850667487503	85.1087498783895
2156437500	-1.0504459707691	84.6632595511428
2156625000	-1.05265636181312	84.2272465590137
2156812500	-1.05026788303201	83.7445906374408
2157000000	-1.05579022220428	83.3050999181425
2157187500	-1.05882610383884	82.8438427689674
2157375000	-1.0616899845697	82.4071748340928
2157562500	-1.05406065524785	81.9165511471822
2157750000	-1.05447159208676	81.4546571075757
2157937500	-1.05675198547575	81.0358800860003
2158125000	-1.06177077752639	80.5724974705326
2158312500	-1.05667307747915	80.1229816463821
2158500000	-1.05938516333999	79.6740994155483
2158687500	-1.06703895859999	79.1727008934483
2158875000	-1.05748389676904	78.7269309582579
2159062500	-1.0687878004935	78.275406966852
2159250000	-1.06069794775842	77.8633684418279
2159437500	-1.06206587865855	77.3777407436464
2159625000	-1.06554042101258	76.9024364045529
2159812500	-1.06521455287038	76.483899030764
2160000000	-1.06650470905933	76.0247305173622
2160187500	-1.06516880914679	75.570232321223
2160375000	-1.06725510359041	75.1153629650151
2160562500	-1.07773670723054	74.6422355291827
2160750000	-1.0701548951449	74.2328085673946
2160937500	-1.06948613551023	73.7302076319758
2161125000	-1.07181009114881	73.3356719608656
2161312500	-1.07396062327373	72.8389811515453
2161500000	-1.07199498441042	72.401554241151
2161687500	-1.0726200122065	71.8563999181608
2161875000	-1.07544952405003	71.490741835794
2162062500	-1.07801470538774	71.0219657907936
2162250000	-1.07867237741034	70.5526515050982
2162437500	-1.07344846382617	70.0945238353679
2162625000	-1.07569772380218	69.6592070753622
2162812500	-1.07524410923601	69.1925674308034
2163000000	-1.07820786762862	68.7442574306368
2163187500	-1.07965437953292	68.2674512060276
2163375000	-1.08681791888838	67.8479123515932
2163562500	-1.08270447118961	67.3590365393807
2163750000	-1.07853251229576	66.9089688270295
2163937500	-1.07388841871299	66.4211697125573
2164125000	-1.08043133641729	65.974156602728
2164312500	-1.08247260030141	65.5280845369926
2164500000	-1.08526729740831	65.0552013932349
2164687500	-1.08082699152412	64.6080199724368
2164875000	-1.08122245018368	64.1637486845574
2165062500	-1.08825823133586	63.7333768680309
2165250000	-1.0845415128211	63.2627310469654
2165437500	-1.07347003239647	62.7929075936643
2165625000	-1.0795483401486	62.3407195891368
2165812500	-1.08324831560205	61.9211998825796
2166000000	-1.08803510178729	61.4411527541495
2166187500	-1.08958627362856	60.9848320119382
2166375000	-1.09074033990578	60.4861331883897
2166562500	-1.08647323127532	60.0176199082452
2166750000	-1.08881176440036	59.6241522974603
2166937500	-1.08998340917572	59.1355680026701
2167125000	-1.08245683408342	58.7116344762694
2167312500	-1.08621305896956	58.2491198395254
2167500000	-1.08737402209646	57.7941032125746
2167687500	-1.09304923378029	57.3200840280387
2167875000	-1.08259874527246	56.840823927429
2168062500	-1.08375856521816	56.4196532437026
2168250000	-1.0916053428548	56.010756823634
2168437500	-1.09213069568776	55.4771948005347
2168625000	-1.08480638592278	55.0149312210928
2168812500	-1.08872863044445	54.5815766082907
2169000000	-1.0896013876951	54.1657464910673
2169187500	-1.08437154179503	53.6882533347745
2169375000	-1.08555857477251	53.258037753641
2169562500	-1.09022349154811	52.8528842163991
2169750000	-1.07906312055532	52.3807707321441
2169937500	-1.06855832488104	51.9506362408158
2170125000	-1.05769501445716	51.6843575146502
2170312500	-1.0577214316968	51.4031400299456
2170500000	-1.06328465558399	51.1394155452197
2170687500	-1.06500736824396	50.9093713612998
2170875000	-1.04868810699391	50.7054081675151
2171062500	-1.05367357486822	50.3524520113701
2171250000	-1.04251764360243	49.9145925210927
2171437500	-1.03586460993349	49.5538124218741
2171625000	-1.04430742578752	49.0925641075741
2171812500	-1.03522754314797	48.6952016653541
2172000000	-1.03922742219838	48.2792071345426
2172187500	-1.03202561370719	47.818690246695
2172375000	-1.02610651898327	47.3568159646604
2172562500	-1.03713432092346	47.0211848012357
2172750000	-1.04662378231863	46.5537076910751
2172937500	-1.04108010645268	46.1340233863302
2173125000	-1.03614704521009	45.6871380461873
2173312500	-1.03285475523407	45.1740893724439
2173500000	-1.02900504367442	44.8075311729341
2173687500	-1.03056819003028	44.3351097560034
2173875000	-1.02936384201061	43.9007456914749
2174062500	-1.04114782563309	43.4190771163856
2174250000	-1.03801531726128	43.0488345714191
2174437500	-1.03634674111751	42.5320543777664
2174625000	-1.03727157809828	42.0821159279983
2174812500	-1.03975866649851	41.6879367620473
2175000000	-1.03179252845318	41.2454499158648
2175187500	-1.03763549586456	40.7436561963673
2175375000	-1.03893475594651	40.3678060717128
2175562500	-1.01927789091799	39.8779734135276
2175750000	-1.05424846441979	39.3827430603072
2175937500	-1.03328369220352	38.9180536308514
2176125000	-1.03678633156706	38.5606840520523
2176312500	-1.04234716278215	38.0619005008103
2176500000	-1.03012925438229	37.6309661158087
2176687500	-1.04661420568481	37.1880809520998
2176875000	-1.03546231437447	36.6327165352109
2177062500	-1.02785180095998	36.2675825597354
