!Agilent N9918A: A.07.57
!Date: Wednesday, 14 January 2015 15:45:10
!TimeZone: (GMT+08:00) Kuala Lumpur, Singapore!Model: N9918A
!Serial: MY53103598
!GPS Latitude: 
!GPS Longitude: 
!GPS TimeStamp: 0001-01-01 00:00:00Z
!GPS Seconds Since Last Read: 0
!CHECKSUM:1315646302
!Correction: S11(ON U*)
!S1P File: Measurement: S11:
# Hz S DB R 50
2285250000	-0.739543375064954	-169.923734171892
2285375000	-0.742440286804132	-169.961857571896
2285500000	-0.733496399234199	-170.198019384145
2285625000	-0.74543064414848	-170.160810148837
2285750000	-0.744487236801142	-170.278558888364
2285875000	-0.759021529447773	-170.447606112518
2286000000	-0.766563196616091	-170.557582049605
2286125000	-0.763718939137995	-170.562358199137
2286250000	-0.754952665584874	-170.794833167027
2286375000	-0.767200253932712	-170.837857412331
2286500000	-0.774757282235709	-170.940808796726
2286625000	-0.776437857799171	-171.003370271454
2286750000	-0.775812885900147	-171.050732756481
2286875000	-0.771357457599388	-171.242721811614
2287000000	-0.773365779501586	-171.313513879529
2287125000	-0.77423223316225	-171.38827208621
2287250000	-0.771039476064681	-171.420575451632
2287375000	-0.772699628351235	-171.592266732881
2287500000	-0.775288772559334	-171.662250056938
2287625000	-0.764321787980245	-171.842772748853
2287750000	-0.765563118076271	-171.933231131832
2287875000	-0.778781003763064	-172.011859401215
2288000000	-0.774669289531751	-172.050376720372
2288125000	-0.773224353786068	-172.127058840583
2288250000	-0.771628420719889	-172.252759534614
2288375000	-0.768028121296628	-172.416921335152
2288500000	-0.767263411607419	-172.476235382148
2288625000	-0.775324350649107	-172.580394590872
2288750000	-0.77524611045023	-172.739237895957
2288875000	-0.779881760203115	-172.81498747317
2289000000	-0.783744926957202	-172.902651724638
2289125000	-0.781216003676949	-172.995496725575
2289250000	-0.786582734330743	-173.076190404109
2289375000	-0.792730576809053	-173.130918950093
2289500000	-0.794611077554709	-173.320537590905
2289625000	-0.789670651446037	-173.351376157862
2289750000	-0.790389020943253	-173.451775904155
2289875000	-0.784490809164283	-173.594213162377
2290000000	-0.787966150363187	-173.587513227615
2290125000	-0.784950874922493	-173.687382995658
2290250000	-0.78362224959506	-173.845711121309
2290375000	-0.775718015279912	-173.83446262019
2290500000	-0.785898418696142	-173.926631150677
2290625000	-0.78422059670152	-174.036085698617
2290750000	-0.789686620236104	-174.144913203731
2290875000	-0.784470185000069	-174.271609176826
2291000000	-0.788543551279703	-174.314700486113
2291125000	-0.776312340097454	-174.521627637276
2291250000	-0.78831191792437	-174.563620100322
2291375000	-0.785269675633105	-174.671227013964
2291500000	-0.787824811445956	-174.832454749864
2291625000	-0.787084135413037	-174.906173883825
2291750000	-0.785515920202178	-175.053971723545
2291875000	-0.792248306344738	-175.139908370688
2292000000	-0.79242763829416	-175.272308811809
2292125000	-0.78484798867107	-175.435925771303
2292250000	-0.793886953083511	-175.501330754477
2292375000	-0.791593891741744	-175.62363479827
2292500000	-0.804278561176536	-175.774357362106
2292625000	-0.809794759922099	-175.876836870879
2292750000	-0.801194365582633	-175.986412600889
2292875000	-0.800485462557341	-176.122452622767
2293000000	-0.805681340341344	-176.234781653601
2293125000	-0.793893686189492	-176.313399451711
2293250000	-0.805760055242998	-176.454762135622
2293375000	-0.80101820239097	-176.559786149093
2293500000	-0.816048706001498	-176.627390663897
2293625000	-0.807663581006617	-176.855539511364
2293750000	-0.807103648062305	-176.883752731641
2293875000	-0.812515662877074	-176.983465657494
2294000000	-0.818693487208302	-177.114256381221
2294125000	-0.812884250393025	-177.245909981228
2294250000	-0.815696134490532	-177.384673786275
2294375000	-0.820697937264768	-177.436894545034
2294500000	-0.810716940077931	-177.531495820784
2294625000	-0.799884246306368	-177.64291463683
2294750000	-0.813030589676409	-177.811041282896
2294875000	-0.811562686490145	-177.962050901365
2295000000	-0.825799670784397	-178.00865053466
2295125000	-0.811058155364756	-178.131437708266
2295250000	-0.830500846576433	-178.222109890702
2295375000	-0.821275191260663	-178.270558323726
2295500000	-0.818404544220722	-178.430725268578
2295625000	-0.826007004561476	-178.621284352011
2295750000	-0.827439813412002	-178.676090659958
2295875000	-0.829007793037656	-178.736205628241
2296000000	-0.825464384762777	-178.767428486685
2296125000	-0.827431515508918	-178.912033464231
2296250000	-0.842621948696197	-179.062303209124
2296375000	-0.833812296065168	-179.167224977995
2296500000	-0.852606643246074	-179.286667811644
2296625000	-0.8381131031298	-179.357532327173
2296750000	-0.853379381992948	-179.457847515821
2296875000	-0.849726710714799	-179.583825810635
2297000000	-0.853372486599876	-179.711119248409
2297125000	-0.850715824516058	-179.831702585309
2297250000	-0.840161137880928	-179.950337753126
2297375000	-0.849774653733372	179.946609303801
2297500000	-0.835720807589168	179.865389215017
2297625000	-0.850959155782729	179.792545606656
2297750000	-0.8464098577608	179.566030097395
2297875000	-0.846049407172191	179.53574239303
2298000000	-0.849693594679841	179.428323747253
2298125000	-0.845923763265331	179.22692004333
2298250000	-0.846956941852703	179.122723942974
2298375000	-0.850315216378949	179.010169205265
2298500000	-0.863348969457803	178.938563019005
2298625000	-0.853888611577591	178.815127729444
2298750000	-0.853175631935386	178.660363849972
2298875000	-0.852179754469867	178.502574611808
2299000000	-0.856025669856445	178.418245249835
2299125000	-0.854196830462229	178.306596957847
2299250000	-0.846792107337028	178.27524367807
2299375000	-0.851213223725959	178.041772427579
2299500000	-0.858745673800883	178.022778811863
2299625000	-0.8598967561587	177.842121550223
2299750000	-0.867267138774001	177.701102595217
2299875000	-0.864671736830551	177.656884069291
2300000000	-0.876354571497515	177.49255178524
2300125000	-0.867297058956634	177.438163377887
2300250000	-0.849285531196167	177.291403642097
2300375000	-0.86167594895532	177.250109518814
2300500000	-0.863997546844292	177.113090404143
2300625000	-0.861264016375651	177.001569605929
2300750000	-0.873550268089211	176.91672526977
2300875000	-0.858786926671044	176.745433983322
2301000000	-0.856978463912481	176.669640213889
2301125000	-0.86701183710041	176.53543662177
2301250000	-0.860423819333898	176.451000439307
2301375000	-0.859134199754933	176.329397405501
2301500000	-0.847833415159375	176.266072224207
2301625000	-0.859548482113897	176.151356796522
2301750000	-0.866647726879515	175.993394924755
2301875000	-0.851520453925862	175.939765847835
2302000000	-0.844651423244801	175.849742691699
2302125000	-0.854955541900506	175.755254018703
2302250000	-0.846738981702229	175.610981841451
2302375000	-0.830087064052598	175.531046264409
2302500000	-0.845219301144958	175.406790563281
2302625000	-0.835097341657402	175.277648807603
2302750000	-0.842285888599867	175.288536311342
2302875000	-0.828733606032345	175.125916092066
2303000000	-0.836556331092392	175.074039284311
2303125000	-0.828482004228528	174.984399641797
2303250000	-0.822745195742139	174.90485939812
2303375000	-0.82290520151064	174.756107897319
2303500000	-0.820440008871531	174.709252662121
2303625000	-0.817009463435522	174.637056792244
2303750000	-0.826840074234356	174.563107375348
2303875000	-0.821181548256852	174.405035091084
2304000000	-0.831216332527123	174.295876357317
2304125000	-0.822837892977662	174.17271724802
2304250000	-0.830196315727393	174.114131430575
2304375000	-0.822383987938492	173.987351756844
2304500000	-0.829226472188328	173.945458025298
2304625000	-0.829058951795745	173.864882363843
2304750000	-0.836329663631296	173.670371487131
2304875000	-0.833916376072971	173.664806405761
2305000000	-0.845033153907319	173.527541160227
2305125000	-0.83492930806108	173.377673884107
2305250000	-0.824034941188624	173.373242449164
2305375000	-0.826012506983127	173.218401883956
2305500000	-0.820771969584288	173.19230069974
2305625000	-0.828915506043996	173.072229812067
2305750000	-0.819323173798681	172.990731454532
2305875000	-0.81161845127828	172.893061552574
2306000000	-0.821413204233527	172.750601865701
2306125000	-0.821816179342009	172.658465811224
2306250000	-0.806012024956812	172.575691627287
2306375000	-0.82391875658216	172.440742983041
2306500000	-0.814891558232419	172.371129012485
2306625000	-0.80084213212248	172.203085553302
2306750000	-0.815242546872565	172.148607378628
2306875000	-0.800056938624533	171.994084007897
2307000000	-0.803359328920421	171.898999033061
2307125000	-0.804151645299505	171.796818536398
2307250000	-0.808215603494167	171.793262497494
2307375000	-0.806176515187535	171.598602519904
2307500000	-0.796041334574706	171.506322760394
2307625000	-0.805410397391455	171.405942959031
2307750000	-0.796783624820918	171.255618919789
2307875000	-0.796427463909687	171.21639150865
2308000000	-0.804381892948178	171.094240371525
2308125000	-0.799791345929658	170.99866914254
2308250000	-0.802896784780393	170.87692968087
2308375000	-0.806262218045871	170.751265498412
2308500000	-0.7961297742645	170.674422150682
2308625000	-0.817295313963642	170.539512503844
2308750000	-0.829882592604009	170.40260561691
2308875000	-0.847896983991493	170.283379097984
2309000000	-0.858265056229555	170.086590818098
2309125000	-0.855609462933263	170.058084666323
2309250000	-0.859100999729515	169.979365975297
2309375000	-0.852473020915261	169.928200556587
2309500000	-0.843016200026738	169.857290518671
2309625000	-0.82245275311848	169.830300683703
2309750000	-0.798350807893675	169.691555992005
2309875000	-0.760908302063094	169.619042308912
2310000000	-0.761562206500054	169.574551930147
2310125000	-0.76888465018313	169.494260047712
2310250000	-0.767382450797798	169.347109482154
2310375000	-0.762998179081057	169.274461823924
2310500000	-0.772124792484683	169.173178561487
2310625000	-0.77002094397379	169.152666428211
2310750000	-0.762150423425001	168.992454654526
2310875000	-0.759164533343547	168.936831291975
2311000000	-0.772119780373547	168.811853036191
2311125000	-0.780971676529959	168.71898278258
2311250000	-0.772936388070237	168.598376870398
2311375000	-0.77006504248302	168.477072002184
2311500000	-0.770834745496139	168.419427233983
2311625000	-0.768302684246474	168.32009087637
2311750000	-0.769113573318865	168.244196086123
2311875000	-0.770665739505789	168.120381958994
2312000000	-0.763410613656273	168.003348805754
2312125000	-0.771628991924064	167.939489150431
2312250000	-0.75821170069855	167.835108562252
2312375000	-0.750929451362181	167.660390612481
2312500000	-0.742487664754299	167.555007933462
2312625000	-0.748591885625032	167.473739571859
2312750000	-0.743585969476716	167.360281308218
2312875000	-0.745767318143598	167.254593425032
2313000000	-0.735418386027041	167.093567165226
2313125000	-0.752802067777685	167.00077870191
2313250000	-0.743377549246969	166.873071914398
2313375000	-0.7402320786449	166.763750154878
2313500000	-0.739383181752678	166.665841071572
2313625000	-0.740902585282125	166.579883865724
2313750000	-0.741623375740991	166.453508381108
2313875000	-0.732420107501685	166.371093353571
2314000000	-0.734815756201554	166.247058232835
2314125000	-0.734379442009076	166.206837595071
2314250000	-0.733239775645929	166.101346166709
2314375000	-0.724680807913254	165.985742411065
2314500000	-0.727299419525231	165.85854829114
2314625000	-0.728169524463386	165.783103521887
2314750000	-0.717387784432437	165.674140090959
2314875000	-0.733555982140758	165.548016971382
2315000000	-0.72654212679015	165.496125537601
2315125000	-0.727994892426015	165.40071753115
2315250000	-0.728366984087722	165.269584657211
2315375000	-0.729039156929538	165.220574436342
2315500000	-0.727597037831329	165.052577231099
2315625000	-0.715885156557837	164.976104870774
2315750000	-0.721428932193985	164.81315978699
2315875000	-0.72376698347859	164.708428362823
2316000000	-0.726764196573137	164.607626380357
2316125000	-0.713826072190431	164.486050291757
2316250000	-0.732381586420268	164.415443380099
2316375000	-0.72884098016252	164.300168803934
2316500000	-0.72970906157193	164.189440395929
2316625000	-0.73206023116676	164.079223508829
2316750000	-0.728830987721459	163.94744717916
2316875000	-0.728864764977791	163.828330357072
2317000000	-0.732220575360317	163.741952770795
2317125000	-0.728040630328689	163.643358842106
2317250000	-0.731737315407305	163.5734841187
2317375000	-0.729389172401172	163.392134283651
2317500000	-0.732363776705007	163.286416958911
2317625000	-0.718658991722883	163.174071940401
2317750000	-0.71942454765739	163.075969557892
2317875000	-0.714699732036029	162.9368769983
2318000000	-0.716712429982023	162.863732968566
2318125000	-0.70961302027133	162.742234952392
2318250000	-0.70101595245816	162.59851637587
2318375000	-0.706104715450525	162.503792539059
2318500000	-0.712176730191114	162.385906926588
2318625000	-0.703624080630552	162.242682990999
2318750000	-0.695292943691643	162.135889640439
2318875000	-0.704054347214787	161.973708048212
2319000000	-0.705161184916523	161.873971218696
2319125000	-0.705038865539855	161.698138587296
2319250000	-0.695457908279381	161.514348171431
2319375000	-0.700457032187345	161.461279349835
2319500000	-0.696272894524377	161.325865303168
2319625000	-0.697595698158659	161.262808332587
2319750000	-0.691528141114996	161.00917811593
2319875000	-0.695877422804444	160.920258154739
2320000000	-0.691228670593201	160.807098887988
2320125000	-0.697178096803697	160.601446170256
2320250000	-0.704063967230766	160.47549758033
2320375000	-0.705054002058587	160.360819906174
2320500000	-0.695313482101466	160.146971627327
2320625000	-0.704246849463035	160.070999311733
2320750000	-0.698664957848993	159.877427749271
2320875000	-0.710152383940023	159.789072681073
2321000000	-0.708116278672086	159.600913543758
2321125000	-0.709364837876727	159.548472642047
2321250000	-0.701250103829241	159.394720391981
2321375000	-0.698936655567072	159.284792461869
2321500000	-0.695669476155915	159.153526699263
2321625000	-0.705241529750328	159.02273631373
2321750000	-0.696886031239546	158.928832817747
2321875000	-0.696766650866081	158.802135518385
2322000000	-0.702102046461792	158.700626579998
2322125000	-0.70782793156713	158.483113807673
2322250000	-0.695113090223485	158.378059393239
2322375000	-0.699604031447407	158.088284974207
2322500000	-0.715020472036902	158.0320884029
2322625000	-0.704908373106278	157.789995202355
2322750000	-0.712487526045353	157.641887192863
2322875000	-0.719733706515415	157.529438378647
2323000000	-0.70742006047367	157.297579479513
2323125000	-0.72166000361466	157.141871149984
2323250000	-0.725172063424444	156.961222103766
2323375000	-0.729894406129836	156.778506275903
2323500000	-0.732072888702904	156.626161707075
2323625000	-0.731423506361937	156.431760529715
2323750000	-0.722855316196762	156.311987539106
2323875000	-0.719030844956684	156.176188914741
2324000000	-0.716493529819227	155.98878831924
2324125000	-0.72060052927577	155.833625847254
2324250000	-0.711324071521463	155.737579158305
2324375000	-0.706807678041632	155.552301578592
2324500000	-0.712231605628556	155.356369132608
2324625000	-0.710420025648372	155.158594285409
2324750000	-0.727472606768203	154.958885988555
2324875000	-0.714644616741853	154.735585658365
2325000000	-0.713439549002646	154.535160792133
2325125000	-0.730081721351215	154.400482384999
2325250000	-0.734407797717468	154.189240984016
2325375000	-0.734960103643753	154.013547327175
2325500000	-0.728246455443215	153.772640615142
2325625000	-0.741265917284432	153.619135830582
2325750000	-0.750891449609229	153.38828511287
2325875000	-0.749955330661749	153.187197851105
2326000000	-0.747911875964396	152.960926182355
2326125000	-0.748927748803071	152.74135117459
2326250000	-0.756279217695912	152.491471248623
2326375000	-0.75298034399304	152.371167917298
2326500000	-0.756344786572189	152.167965734298
2326625000	-0.770844982355621	151.906773835582
2326750000	-0.769724699256999	151.66212871602
2326875000	-0.768726272713966	151.449144010822
2327000000	-0.763904219817121	151.227896051254
2327125000	-0.775994263171616	151.051732317793
2327250000	-0.78461236063496	150.776278729347
2327375000	-0.780350200242779	150.590261158162
2327500000	-0.79225216468289	150.226085076284
2327625000	-0.792111080027854	149.940637137603
2327750000	-0.788800058392506	149.721074534985
2327875000	-0.803535303311019	149.446537530916
2328000000	-0.809347213359328	149.195601832852
2328125000	-0.814588791520574	148.914652500124
2328250000	-0.821940868989708	148.59298190794
2328375000	-0.836540721177252	148.29249971448
2328500000	-0.823470138346151	147.937663440153
2328625000	-0.839948673609419	147.722120542754
2328750000	-0.856276551860501	147.360166825695
2328875000	-0.873753356713321	147.033925205405
2329000000	-0.881902962372507	146.729531751296
2329125000	-0.884912641083717	146.303301158857
2329250000	-0.901817074455888	146.052766329246
2329375000	-0.907052515023599	145.562553914512
2329500000	-0.919315761508805	145.254571410655
2329625000	-0.946944801234526	144.86959129288
2329750000	-0.961759779405228	144.501367112851
2329875000	-0.973851343617735	144.012589276191
2330000000	-0.977300955907631	143.543360038277
2330125000	-1.0117901106054	143.151997896521
2330250000	-1.03185677827818	142.679167415796
2330375000	-1.03924590432625	142.13121473282
2330500000	-1.07705105636163	141.664000370034
2330625000	-1.09012252212189	141.099199146419
2330750000	-1.12747069839696	140.561433276647
2330875000	-1.16397369644437	140.079406194243
2331000000	-1.16804795821715	139.438706776922
2331125000	-1.21391667811073	138.756883628975
2331250000	-1.25107077399595	138.086234481401
2331375000	-1.27948698597679	137.447298536456
2331500000	-1.33992532162427	136.606475709745
2331625000	-1.37174466671669	135.993547609462
2331750000	-1.41982092396878	135.056478140767
2331875000	-1.48968980787073	134.293679572837
2332000000	-1.53331040280912	133.406162175635
2332125000	-1.62840225042068	132.448303411113
2332250000	-1.70141858507274	131.446876229579
2332375000	-1.79106470381489	130.307483025774
2332500000	-1.88425339700998	129.169530799308
2332625000	-1.99615618817059	128.100444494244
2332750000	-2.11907223425437	126.690207974638
2332875000	-2.25558772871993	125.390499627793
2333000000	-2.41080379862198	123.95324998963
2333125000	-2.61058627455504	122.37835721332
2333250000	-2.81338399109541	120.787797832054
2333375000	-3.08922406969552	119.00851835719
2333500000	-3.37304797865341	116.933991561187
2333625000	-3.69667142373379	114.966361317642
2333750000	-4.10332865008698	112.877956320985
2333875000	-4.56361652090501	110.533009125367
2334000000	-5.12677400694264	108.096468444274
2334125000	-5.78486850672801	105.553451668461
2334250000	-6.59668048463565	103.058557395173
2334375000	-7.59990654377349	100.549399302941
2334500000	-8.80283677681243	98.2933175873229
2334625000	-10.3877478958978	96.3291386500046
2334750000	-12.39687907852	95.6106448154236
2334875000	-15.1553223390012	97.9150579900867
2335000000	-18.9652883824589	106.794144363449
2335125000	-23.3269850805966	141.756909583037
2335250000	-21.1799883053707	-168.307910247464
2335375000	-16.8547605777649	-149.597625946047
2335500000	-13.5767515119195	-145.409895404921
2335625000	-11.3032194239833	-144.758856103687
2335750000	-9.54142584289308	-146.287795810337
2335875000	-8.18770939320997	-148.306428059593
2336000000	-7.09341354513506	-150.63464744966
2336125000	-6.20657051784761	-152.986124267081
2336250000	-5.48567634290953	-155.40501020135
2336375000	-4.88039507614138	-157.99472675941
