!Agilent N9918A: A.07.57
!Date: Wednesday, 21 January 2015 17:23:19
!TimeZone: (GMT+08:00) Kuala Lumpur, Singapore!Model: N9918A
!Serial: MY53103598
!GPS Latitude: 
!GPS Longitude: 
!GPS TimeStamp: 0001-01-01 00:00:00Z
!GPS Seconds Since Last Read: 0
!CHECKSUM:1423744009
!Correction: S11(ON U?)
!S1P File: Measurement: S11:
# Hz S DB R 50
2209531250	-0.638982725090038	-113.947589314078
2209687500	-0.633064395069561	-114.02354267046
2209843750	-0.616297482154794	-114.134892378389
2210000000	-0.604211323492631	-114.269516286881
2210156250	-0.606857118531183	-114.439208362814
2210312500	-0.617514886499726	-114.621400438624
2210468750	-0.597175747031346	-114.735895554458
2210625000	-0.607690288062428	-115.009700542538
2210781250	-0.595415698483694	-115.03442000868
2210937500	-0.606738960958785	-115.210678851454
2211093750	-0.59956104332369	-115.272411280765
2211250000	-0.615783017787046	-115.284037632311
2211406250	-0.629094330511318	-115.580350481714
2211562500	-0.617010923502944	-115.527329953721
2211718750	-0.612283860638835	-115.731082885358
2211875000	-0.60946676651133	-115.91672153516
2212031250	-0.590917638121993	-116.007732439653
2212187500	-0.605493438158289	-116.098549468625
2212343750	-0.636040998945601	-116.180920859516
2212500000	-0.621867277321346	-116.440340113339
2212656250	-0.597113427098355	-116.49395457424
2212812500	-0.592445998357828	-116.59408028567
2212968750	-0.609853766928257	-116.716214082843
2213125000	-0.636305557366967	-116.838368467135
2213281250	-0.63576867311736	-116.704435090531
2213437500	-0.583199821571919	-116.933035617802
2213593750	-0.610052299884331	-117.105256723201
2213750000	-0.626996291934536	-117.387976530383
2213906250	-0.602226868480828	-117.33649776875
2214062500	-0.614541867570941	-117.453586359185
2214218750	-0.629919214814224	-117.670552764857
2214375000	-0.610797405203763	-117.735467964285
2214531250	-0.600793483686828	-117.895529709237
2214687500	-0.617135040748748	-117.89611610413
2214843750	-0.623247335261426	-118.028792214867
2215000000	-0.621449935172681	-118.031672235291
2215156250	-0.605132486759401	-118.164277279051
2215312500	-0.612923151058221	-118.39977220422
2215468750	-0.5976723428696	-118.586417331683
2215625000	-0.594991611883812	-118.562780396605
2215781250	-0.600711268060649	-118.684640138446
2215937500	-0.585690888551055	-118.859354555748
2216093750	-0.617550106242944	-118.886430083178
2216250000	-0.63105465218193	-119.037367500531
2216406250	-0.618163023670882	-119.119159589813
2216562500	-0.621924502600948	-119.13709037911
2216718750	-0.604802529811566	-119.40626683583
2216875000	-0.623650694379618	-119.547891010253
2217031250	-0.607474787199342	-119.54246646622
2217187500	-0.616877985904367	-119.707417146356
2217343750	-0.610757043537767	-119.700501041508
2217500000	-0.597465176214474	-119.801323136684
2217656250	-0.594585476649316	-120.043358614247
2217812500	-0.617993563325203	-120.274479780833
2217968750	-0.614206487674602	-120.328054951123
2218125000	-0.601117207692127	-120.408720110422
2218281250	-0.613837366077752	-120.54379597835
2218437500	-0.570366274048246	-120.602680586264
2218593750	-0.606021545419035	-120.671102361355
2218750000	-0.614857374835048	-120.848698863192
2218906250	-0.611274402017894	-121.054635401799
2219062500	-0.594987859472403	-121.000179477771
2219218750	-0.598382593388916	-121.196266982771
2219375000	-0.589390080151124	-121.416454152817
2219531250	-0.597528784337393	-121.339028896555
2219687500	-0.591853343856118	-121.623861356363
2219843750	-0.58319029550873	-121.658915479195
2220000000	-0.607081351034882	-121.696948526706
2220156250	-0.610491181986366	-121.889411558357
2220312500	-0.631538123298831	-122.007016245924
2220468750	-0.611491146836782	-122.030039041646
2220625000	-0.614112806908445	-122.162488883651
2220781250	-0.606291874836378	-122.213949928647
2220937500	-0.618682404446318	-122.535995803152
2221093750	-0.607635441017068	-122.588155572523
2221250000	-0.61816365140734	-122.690187939489
2221406250	-0.615032091193101	-122.809439974927
2221562500	-0.618049879411482	-122.966591345687
2221718750	-0.592236278858006	-123.008425119826
2221875000	-0.595684090839566	-123.189008135424
2222031250	-0.606474815717149	-123.302776041542
2222187500	-0.59780847496069	-123.229772148568
2222343750	-0.624988142324879	-123.39104663312
2222500000	-0.619707850427548	-123.617547237297
2222656250	-0.614045491744393	-123.746906613442
2222812500	-0.618793996837038	-123.812583515832
2222968750	-0.613474546927209	-123.944684955679
2223125000	-0.595705638271207	-124.118191127566
2223281250	-0.630210269917876	-124.215853078457
2223437500	-0.637614867329657	-124.245487731189
2223593750	-0.608465756929474	-124.154720674388
2223750000	-0.598386040709316	-124.276106030788
2223906250	-0.590407291937619	-124.621006506139
2224062500	-0.606383320323546	-124.740663731015
2224218750	-0.622498440235896	-124.771275940577
2224375000	-0.60376711811555	-124.911624787127
2224531250	-0.597436525185029	-124.971718607095
2224687500	-0.611143911897372	-124.98539360097
2224843750	-0.582047551025216	-125.41154305805
2225000000	-0.620874641878565	-125.346309102997
2225156250	-0.612575179086605	-125.414444942601
2225312500	-0.594438015977653	-125.471357383325
2225468750	-0.626356231891738	-125.586161536669
2225625000	-0.619953337661465	-125.755560337459
2225781250	-0.609848532806397	-125.872089738811
2225937500	-0.601758471316603	-125.915401614186
2226093750	-0.613382862075827	-126.069540826984
2226250000	-0.616241791783362	-126.24158137068
2226406250	-0.617233012813111	-126.468330697825
2226562500	-0.61131496338256	-126.440080599481
2226718750	-0.592962957746737	-126.613226278542
2226875000	-0.607608276857833	-126.642482885775
2227031250	-0.58451667190069	-126.841352999074
2227187500	-0.580333460947119	-126.830397719828
2227343750	-0.600961426426784	-126.984353798402
2227500000	-0.595713526856802	-127.110915944471
2227656250	-0.602907229971905	-127.30727990255
2227812500	-0.634201201487442	-127.333519957528
2227968750	-0.59537594768157	-127.382489298435
2228125000	-0.611064381449594	-127.53752295964
2228281250	-0.598733391399006	-127.650923792535
2228437500	-0.594011369756551	-127.813916880558
2228593750	-0.595302475983935	-127.865593116684
2228750000	-0.590189936242135	-127.998282383933
2228906250	-0.60892767198164	-128.08513449689
2229062500	-0.606475926694249	-128.280743801903
2229218750	-0.593056399827583	-128.419417969841
2229375000	-0.606186693804842	-128.545614039587
2229531250	-0.59053125685418	-128.50774796224
2229687500	-0.608654645599537	-128.518847076913
2229843750	-0.605588067880809	-128.878995638297
2230000000	-0.611937528187256	-129.016611595043
2230156250	-0.598336913657813	-128.945619496516
2230312500	-0.596010362295104	-129.129406416327
2230468750	-0.596308870994214	-129.383669000544
2230625000	-0.602605996790511	-129.283175146518
2230781250	-0.588219844785673	-129.572052722739
2230937500	-0.605663885951687	-129.57284657931
2231093750	-0.601402370377559	-129.681472883064
2231250000	-0.599968221796527	-129.826360069049
2231406250	-0.592661146023784	-129.744069459262
2231562500	-0.584682907884366	-130.070412191558
2231718750	-0.600816667769849	-130.048426748753
2231875000	-0.607071321203306	-130.177661461866
2232031250	-0.590866601711957	-130.434605267874
2232187500	-0.588789904704333	-130.382061121221
2232343750	-0.608757817541614	-130.544875045643
2232500000	-0.609465028822612	-130.677973702309
2232656250	-0.580037475451144	-130.782649970698
2232812500	-0.585837329963604	-130.839489344159
2232968750	-0.580945828064181	-131.102548877238
2233125000	-0.607360420552173	-131.169301567925
2233281250	-0.606496558421197	-131.273029998972
2233437500	-0.586855241125415	-131.234364628455
2233593750	-0.576090629850723	-131.499375559699
2233750000	-0.606259858588449	-131.574084652306
2233906250	-0.5870029883479	-131.783218383952
2234062500	-0.602701289321631	-131.777614699047
2234218750	-0.60691376325537	-131.909810934879
2234375000	-0.59106737153792	-132.157606733522
2234531250	-0.574861571205837	-132.129815132664
2234687500	-0.57912389482329	-132.194626001707
2234843750	-0.603564579612381	-132.300646652511
2235000000	-0.615570349811806	-132.547809756401
2235156250	-0.610475800982881	-132.620074089619
2235312500	-0.627869874278594	-132.719954497396
2235468750	-0.595613020276165	-132.692007364737
2235625000	-0.582322225388149	-133.016297947711
2235781250	-0.593347257129642	-132.966006563369
2235937500	-0.611291589815903	-133.209165107085
2236093750	-0.608450167966204	-133.225139930718
2236250000	-0.59131852995649	-133.439640419661
2236406250	-0.574914592491261	-133.436190159291
2236562500	-0.597594602577277	-133.576801637797
2236718750	-0.591438071315296	-133.748921426641
2236875000	-0.585444987216096	-133.87910993982
2237031250	-0.6045693275188	-133.889726119159
2237187500	-0.589951225100133	-134.024622050913
2237343750	-0.60274422716644	-134.104263991809
2237500000	-0.60532244604737	-134.373730863297
2237656250	-0.587631548178116	-134.401756861483
2237812500	-0.604941322156037	-134.698001236262
2237968750	-0.589229520292744	-134.599727315735
2238125000	-0.591984299059991	-134.853472996193
2238281250	-0.587151020447891	-134.902084693778
2238437500	-0.591106162107185	-134.983493467401
2238593750	-0.590957724370812	-134.965892454584
2238750000	-0.585443822544164	-135.214192344258
2238906250	-0.597424137503876	-135.342705941645
2239062500	-0.555716524340581	-135.304146188748
2239218750	-0.587153640451178	-135.49736117393
2239375000	-0.574142588398035	-135.658509858391
2239531250	-0.59343289227914	-135.782742185507
2239687500	-0.597288134162086	-135.828261106263
2239843750	-0.593396944051885	-135.870515471096
2240000000	-0.609368051214864	-136.15245224659
2240156250	-0.605249481109247	-136.139448161727
2240312500	-0.594846945619276	-136.301663840217
2240468750	-0.587640345471291	-136.203317518404
2240625000	-0.602803240645119	-136.415538939044
2240781250	-0.578807088176684	-136.694803648666
2240937500	-0.588121488373784	-136.764683643558
2241093750	-0.588918422233378	-136.876888504137
2241250000	-0.575619075496106	-136.951476989838
2241406250	-0.600667564058733	-137.086313392443
2241562500	-0.566463120005864	-137.195611117967
2241718750	-0.608772851481964	-137.208605278171
2241875000	-0.57477158071622	-137.526865861668
2242031250	-0.5924259229639	-137.407149571418
2242187500	-0.598902225963027	-137.714746572032
2242343750	-0.592618333077479	-137.798917406793
2242500000	-0.593111272458877	-137.913881594277
2242656250	-0.606131423100985	-138.068093208615
2242812500	-0.582126615291786	-138.104840970889
2242968750	-0.60634909321303	-138.093061324206
2243125000	-0.612080510839614	-138.342033595894
2243281250	-0.585616526929604	-138.453129016269
2243437500	-0.586161941682503	-138.363336311147
2243593750	-0.601590167281868	-138.560728153805
2243750000	-0.6027425118869	-138.780371030629
2243906250	-0.597559301506379	-138.924213102227
2244062500	-0.595980398917318	-138.998398215318
2244218750	-0.593730776631641	-139.137311507805
2244375000	-0.587782514340908	-139.382605350608
2244531250	-0.607207468539387	-139.235414411976
2244687500	-0.589341311022284	-139.685342436672
2244843750	-0.598136607355979	-139.520478630072
2245000000	-0.601288420495198	-139.742940331186
2245156250	-0.600730660093328	-139.749166887319
2245312500	-0.575811643103226	-139.880149726556
2245468750	-0.596767923824811	-139.921399033021
2245625000	-0.613205036028138	-140.282624803172
2245781250	-0.587506129202079	-140.212651710117
2245937500	-0.618662259233481	-140.384395727783
2246093750	-0.596896574291731	-140.612216382883
2246250000	-0.613575256674273	-140.723930350008
2246406250	-0.624532915142707	-140.571532847479
2246562500	-0.605635254276484	-140.83978132583
2246718750	-0.611273960513537	-140.98336350352
2246875000	-0.633448244086697	-140.965498220971
2247031250	-0.589931835803618	-141.1900817866
2247187500	-0.600403297394538	-141.232594420458
2247343750	-0.598356672090094	-141.365970140148
2247500000	-0.62209222115618	-141.526924710269
2247656250	-0.617994272816256	-141.629843433707
2247812500	-0.622647050210284	-141.769214340314
2247968750	-0.600538246027581	-141.832638094093
2248125000	-0.633009524107894	-141.939051676252
2248281250	-0.633292130554868	-142.155293102205
2248437500	-0.616613571152796	-142.350837464582
2248593750	-0.627511985338006	-142.244767715237
2248750000	-0.606951414344467	-142.222059531515
2248906250	-0.624060556052705	-142.555903960721
2249062500	-0.643632986029134	-142.562161644834
2249218750	-0.612070250589055	-142.808817540945
2249375000	-0.594431692000523	-142.85435095648
2249531250	-0.602614395763289	-143.064815778023
2249687500	-0.584482239256759	-143.146770255622
2249843750	-0.612224143419178	-143.15586374747
2250000000	-0.579734787551744	-143.115286683351
2250156250	-0.574097198672847	-143.282980635359
2250312500	-0.58539639573211	-143.43293132798
2250468750	-0.574649278177622	-143.531498516171
2250625000	-0.593428170794566	-143.605818456037
2250781250	-0.590976784131344	-143.819666683131
2250937500	-0.585967071893259	-143.852771142075
2251093750	-0.579948615404344	-143.985234777707
2251250000	-0.594354198211985	-144.08054253675
2251406250	-0.596057392594375	-144.320931027505
2251562500	-0.573450828049027	-144.195909180226
2251718750	-0.577708769621294	-144.294943988346
2251875000	-0.57034453313672	-144.620231653975
2252031250	-0.576012476759198	-144.700953321481
2252187500	-0.588763792529657	-144.850700974508
2252343750	-0.584375791754979	-144.772681119892
2252500000	-0.576632650383717	-144.989565373916
2252656250	-0.573979351742728	-145.124758169843
2252812500	-0.602010457536534	-145.464253948304
2252968750	-0.583557212598593	-145.470547800396
2253125000	-0.565979443330042	-145.536814331876
2253281250	-0.581160534752079	-145.487253801812
2253437500	-0.590863915212441	-145.674950221024
2253593750	-0.606012588132851	-145.764840228726
2253750000	-0.602918499404874	-145.949942999837
2253906250	-0.593368389150581	-146.033085509166
2254062500	-0.591986892728651	-146.088909925261
2254218750	-0.579129982592778	-146.241009140481
2254375000	-0.617395984328306	-146.418292932222
2254531250	-0.584284175089437	-146.387960444028
2254687500	-0.597657425822984	-146.495862547123
2254843750	-0.558607711708385	-146.870001209688
2255000000	-0.56831283841063	-146.893499029266
2255156250	-0.581459467168017	-147.050064475469
2255312500	-0.593865072068102	-147.150063804237
2255468750	-0.596776162395555	-147.11182752526
2255625000	-0.606773555026643	-147.241772669712
2255781250	-0.583481621498461	-147.303588146707
2255937500	-0.61684635751532	-147.502840410097
2256093750	-0.588233831958723	-147.438213554473
2256250000	-0.616609644485908	-147.758353920416
2256406250	-0.583489491567974	-147.855087004199
2256562500	-0.623438113926147	-148.064537111839
2256718750	-0.593192653473434	-148.101985902225
2256875000	-0.596198304198382	-148.301435019017
2257031250	-0.583730503488995	-148.319070597782
2257187500	-0.60465916778362	-148.482529103979
2257343750	-0.59429383426072	-148.424551175036
2257500000	-0.599958231401097	-148.733661954247
2257656250	-0.59614268793121	-148.84243438737
2257812500	-0.601596783602957	-148.904347644215
2257968750	-0.608504205815994	-149.03416406905
2258125000	-0.599069825122408	-148.90318585119
2258281250	-0.616541808342346	-149.128929862802
2258437500	-0.604675148492091	-149.204984305793
2258593750	-0.609663622938543	-149.366645541333
2258750000	-0.618720603578194	-149.524108639846
2258906250	-0.589674735647377	-149.599704619817
2259062500	-0.614935400167889	-149.74805604715
2259218750	-0.627429861087854	-149.844233981744
2259375000	-0.613099557618626	-149.911888061271
2259531250	-0.599755153460293	-150.062999533485
2259687500	-0.600877499718856	-150.208454393311
2259843750	-0.593906291380696	-150.220336799643
2260000000	-0.613542019375466	-150.444166792635
2260156250	-0.597904024472726	-150.496823350081
2260312500	-0.605612131100347	-150.627035306971
2260468750	-0.589410921527555	-150.697133179206
2260625000	-0.601695138953231	-150.866095506598
2260781250	-0.611282421174156	-150.963213213207
2260937500	-0.609382179537176	-151.042951639695
2261093750	-0.599388554642093	-151.235604153579
2261250000	-0.608556092417928	-151.414753799432
2261406250	-0.610081054639285	-151.441433521125
2261562500	-0.593113020505934	-151.601600645798
2261718750	-0.61977461993505	-151.740007171379
2261875000	-0.618948926752231	-151.799986369062
2262031250	-0.597209128650684	-151.895349699066
2262187500	-0.630634193418784	-152.063327362571
2262343750	-0.624890873889098	-152.135908852839
2262500000	-0.619363887220026	-152.114812612578
2262656250	-0.623104632054515	-152.3786054577
2262812500	-0.634064320256745	-152.547474324147
2262968750	-0.597997016827848	-152.520316759253
2263125000	-0.610727951169895	-152.765240483926
2263281250	-0.635585017971805	-152.814549942244
2263437500	-0.592260116972811	-153.054404429178
2263593750	-0.61033750823839	-153.128941807404
2263750000	-0.602469927392424	-153.165532023806
2263906250	-0.602810286216683	-153.248888410524
2264062500	-0.624472946254248	-153.434448291182
2264218750	-0.623633774468667	-153.447179063276
2264375000	-0.614463364768048	-153.601202524007
2264531250	-0.605083264202122	-153.665412763021
2264687500	-0.616697356574611	-153.970863918084
2264843750	-0.613315849048281	-154.077309849825
2265000000	-0.606639098788123	-153.958557239404
2265156250	-0.613434258082642	-154.247865373957
2265312500	-0.610471661182588	-154.349971896883
2265468750	-0.612455736880375	-154.392372542047
2265625000	-0.599477884559267	-154.518811137779
2265781250	-0.620722440619417	-154.660972362572
2265937500	-0.633809788919341	-154.7554944886
2266093750	-0.600846422118929	-154.934300920573
2266250000	-0.624158604161495	-155.023889925187
2266406250	-0.625872716629158	-155.131168108789
2266562500	-0.604711206956853	-155.262367494274
2266718750	-0.614687958457023	-155.407522323605
2266875000	-0.620182521818283	-155.402045151673
2267031250	-0.61749489909407	-155.524303484527
2267187500	-0.624907716308207	-155.625708896495
2267343750	-0.615677846623055	-155.860248184831
2267500000	-0.640414324930912	-155.861488841475
2267656250	-0.642479835613831	-156.119643669796
2267812500	-0.607290869372955	-156.273102402202
2267968750	-0.63157447113398	-156.222186368262
2268125000	-0.632375482632345	-156.397796367012
2268281250	-0.646919767666693	-156.565298167292
2268437500	-0.624834765200094	-156.837000478437
2268593750	-0.625793307015305	-156.704252241679
2268750000	-0.644303241473662	-156.81444823881
2268906250	-0.615303067769019	-156.926768029979
2269062500	-0.644299329404917	-157.014807963734
2269218750	-0.633277018955028	-157.133098962336
2269375000	-0.617184659419103	-157.424707644674
2269531250	-0.63013752463281	-157.407470009619
2269687500	-0.620614131446495	-157.501722830459
2269843750	-0.63699254080422	-157.711198342947
2270000000	-0.623070093277244	-157.779492348806
2270156250	-0.654973395167317	-157.810880858026
2270312500	-0.632440032336613	-158.069204593211
2270468750	-0.621866457823531	-158.126913821059
2270625000	-0.641874143722227	-158.195567634865
2270781250	-0.637205404084192	-158.38044835618
2270937500	-0.66096531880519	-158.331266232133
2271093750	-0.632958609430773	-158.482955602681
2271250000	-0.646665539248602	-158.76838575471
2271406250	-0.616249516260758	-158.740942747875
2271562500	-0.646034061987345	-159.038460555969
2271718750	-0.639887021186602	-158.867553028238
2271875000	-0.587208768120446	-159.228002238258
2272031250	-0.653019006176106	-159.311722796414
2272187500	-0.611299890393852	-159.441037668904
