!Agilent N9918A: A.07.57
!Date: Wednesday, 21 January 2015 17:31:14
!Timezone: (GMT+08:00) Kuala Lumpur, Singapore
!Model: N9918A
!Serial: MY53103598
!GPS Latitude: 
!GPS Longitude: 
!GPS TimeStamp: 0001-01-01 00:00:00Z
!GPS Seconds Since Last Read: 0
!CHECKSUM:0189970501
!Correction: S11()S21(Rdy)S12()S22()
!S2P File: Measurements:S11,S21,S12,S22:
# Hz S DB R 50
2319531250	0	0	-36.3499370282304	-40.743096370786	0	0	0	0	
2319550000	0	0	-36.4051184572597	-41.1270137165694	0	0	0	0	
2319568750	0	0	-36.4342417347457	-41.1696948736811	0	0	0	0	
2319587500	0	0	-36.3028578765542	-41.2462632085383	0	0	0	0	
2319606250	0	0	-36.3434551955668	-41.8187615529212	0	0	0	0	
2319625000	0	0	-36.4249974322109	-41.067857663846	0	0	0	0	
2319643750	0	0	-36.2740783309324	-41.1942161145507	0	0	0	0	
2319662500	0	0	-36.4554219824723	-41.6575217102003	0	0	0	0	
2319681250	0	0	-36.4719371403481	-41.3545734877425	0	0	0	0	
2319700000	0	0	-36.3513779375684	-41.4100344039424	0	0	0	0	
2319718750	0	0	-36.3236992442609	-41.5015445078987	0	0	0	0	
2319737500	0	0	-36.3147091420716	-41.5412867056307	0	0	0	0	
2319756250	0	0	-36.4282494693801	-41.4448384515891	0	0	0	0	
2319775000	0	0	-36.3399858836399	-41.2008930426044	0	0	0	0	
2319793750	0	0	-36.2831842346545	-41.7596082384285	0	0	0	0	
2319812500	0	0	-36.3624779217828	-41.93303302834	0	0	0	0	
2319831250	0	0	-36.2641814689751	-41.4252714293042	0	0	0	0	
2319850000	0	0	-36.3206716855988	-42.1291233122764	0	0	0	0	
2319868750	0	0	-36.327552015501	-42.1015254638416	0	0	0	0	
2319887500	0	0	-36.2339887000188	-41.9929414884177	0	0	0	0	
2319906250	0	0	-36.2882579556432	-42.1940282597602	0	0	0	0	
2319925000	0	0	-36.1886035176237	-41.7189152268764	0	0	0	0	
2319943750	0	0	-36.2726166582447	-42.0602058951048	0	0	0	0	
2319962500	0	0	-36.2356326090881	-41.9759749059	0	0	0	0	
2319981250	0	0	-36.2267025988797	-42.3833144441289	0	0	0	0	
2320000000	0	0	-36.2960199623573	-42.0641524803072	0	0	0	0	
2320018750	0	0	-36.205906428207	-42.2585269188317	0	0	0	0	
2320037500	0	0	-36.2600891312681	-42.4802336014887	0	0	0	0	
2320056250	0	0	-36.2004800422037	-42.6875594879458	0	0	0	0	
2320075000	0	0	-36.211735196764	-43.065455131763	0	0	0	0	
2320093750	0	0	-36.2128428674071	-42.3463323933671	0	0	0	0	
2320112500	0	0	-36.2370044565274	-42.7041956059292	0	0	0	0	
2320131250	0	0	-36.2612578616779	-43.0671053779765	0	0	0	0	
2320150000	0	0	-36.2062002039504	-42.9071941242117	0	0	0	0	
2320168750	0	0	-36.1617750365194	-42.2692964852502	0	0	0	0	
2320187500	0	0	-36.2676350031219	-42.7947943550091	0	0	0	0	
2320206250	0	0	-36.2281048648905	-42.9276415717839	0	0	0	0	
2320225000	0	0	-36.2218390138385	-43.2990146188826	0	0	0	0	
2320243750	0	0	-36.178792147074	-43.0672107973412	0	0	0	0	
2320262500	0	0	-36.2087514872588	-43.2645379752672	0	0	0	0	
2320281250	0	0	-36.1835063133825	-43.1454798238377	0	0	0	0	
2320300000	0	0	-36.1748734114003	-42.66422805302	0	0	0	0	
2320318750	0	0	-36.1342897944608	-43.0067393159768	0	0	0	0	
2320337500	0	0	-36.1952242903538	-43.43353519939	0	0	0	0	
2320356250	0	0	-36.1888060487081	-43.5446520622728	0	0	0	0	
2320375000	0	0	-36.1820196041204	-43.4064745969428	0	0	0	0	
2320393750	0	0	-36.0515879724917	-43.5475983091338	0	0	0	0	
2320412500	0	0	-36.1008288391061	-43.8279004545047	0	0	0	0	
2320431250	0	0	-36.1650576457504	-43.9704669812513	0	0	0	0	
2320450000	0	0	-36.1364763714689	-43.9842779469579	0	0	0	0	
2320468750	0	0	-36.1056901796549	-43.7364545835113	0	0	0	0	
2320487500	0	0	-36.0185454310948	-43.2635203549172	0	0	0	0	
2320506250	0	0	-36.0582520925827	-43.6269844930686	0	0	0	0	
2320525000	0	0	-36.1373408610199	-44.0588012900983	0	0	0	0	
2320543750	0	0	-35.9919224690288	-44.1451134714436	0	0	0	0	
2320562500	0	0	-36.1313908292431	-43.8415816253562	0	0	0	0	
2320581250	0	0	-36.0230402562379	-44.6289044812963	0	0	0	0	
2320600000	0	0	-36.0611748928355	-44.402927992816	0	0	0	0	
2320618750	0	0	-36.0207508665762	-43.9951836996966	0	0	0	0	
2320637500	0	0	-36.0135158340396	-43.7845461529176	0	0	0	0	
2320656250	0	0	-36.0789100775088	-44.8908269086143	0	0	0	0	
2320675000	0	0	-35.9767915786842	-44.4530688873431	0	0	0	0	
2320693750	0	0	-36.0031144618705	-44.5860048919962	0	0	0	0	
2320712500	0	0	-35.981001647702	-44.5080582228705	0	0	0	0	
2320731250	0	0	-36.0353403548454	-44.9685241379492	0	0	0	0	
2320750000	0	0	-35.9873404900241	-44.2554149037756	0	0	0	0	
2320768750	0	0	-35.9980275968853	-44.3298796317653	0	0	0	0	
2320787500	0	0	-35.9431925883177	-45.2603028397066	0	0	0	0	
2320806250	0	0	-36.0135877450656	-44.7978493479701	0	0	0	0	
2320825000	0	0	-35.921748456672	-45.193297145338	0	0	0	0	
2320843750	0	0	-35.9473401486192	-44.6248506488817	0	0	0	0	
2320862500	0	0	-35.9254485439652	-44.4675389757626	0	0	0	0	
2320881250	0	0	-35.947362915192	-44.5867053558537	0	0	0	0	
2320900000	0	0	-35.9071627609523	-44.8174789618901	0	0	0	0	
2320918750	0	0	-35.9590938289747	-44.7620538320202	0	0	0	0	
2320937500	0	0	-35.9397406624165	-45.375587232388	0	0	0	0	
2320956250	0	0	-35.926322620461	-44.6008859229888	0	0	0	0	
2320975000	0	0	-35.8715632015201	-45.5995528280301	0	0	0	0	
2320993750	0	0	-35.8819899190629	-44.9602836274691	0	0	0	0	
2321012500	0	0	-35.9104349758355	-45.0507326490158	0	0	0	0	
2321031250	0	0	-35.9454435413133	-45.4818572405207	0	0	0	0	
2321050000	0	0	-35.893444558647	-44.7282083378047	0	0	0	0	
2321068750	0	0	-35.8285626047804	-44.6933111731455	0	0	0	0	
2321087500	0	0	-35.8314359753501	-45.6590790018106	0	0	0	0	
2321106250	0	0	-35.7964069651781	-45.2822131112693	0	0	0	0	
2321125000	0	0	-35.872692815797	-45.6488153923396	0	0	0	0	
2321143750	0	0	-35.8924554985165	-46.1156208752562	0	0	0	0	
2321162500	0	0	-35.8274960696856	-45.2401604392265	0	0	0	0	
2321181250	0	0	-35.8596756175063	-45.9607307171448	0	0	0	0	
2321200000	0	0	-35.8831818512957	-46.3185796283558	0	0	0	0	
2321218750	0	0	-35.8003218963417	-45.9756275364286	0	0	0	0	
2321237500	0	0	-35.7224128731646	-46.0377296980403	0	0	0	0	
2321256250	0	0	-35.8171495706335	-45.4614049661292	0	0	0	0	
2321275000	0	0	-35.7376714650528	-45.8640876164025	0	0	0	0	
2321293750	0	0	-35.8071434244997	-46.4755749589829	0	0	0	0	
2321312500	0	0	-35.7906062561843	-46.379846194076	0	0	0	0	
2321331250	0	0	-35.699855002949	-46.4557060453465	0	0	0	0	
2321350000	0	0	-35.7862922638071	-46.6367814302558	0	0	0	0	
2321368750	0	0	-35.7032719057611	-46.4608503748701	0	0	0	0	
2321387500	0	0	-35.7688692772033	-46.3694895477811	0	0	0	0	
2321406250	0	0	-35.694204073889	-46.7458537435461	0	0	0	0	
2321425000	0	0	-35.7765798688402	-46.5434123335668	0	0	0	0	
2321443750	0	0	-35.7012817470272	-46.7549524441957	0	0	0	0	
2321462500	0	0	-35.6092098660126	-47.1229853025121	0	0	0	0	
2321481250	0	0	-35.7266522537424	-46.681743590625	0	0	0	0	
2321500000	0	0	-35.6974830413859	-46.8567942188505	0	0	0	0	
2321518750	0	0	-35.6970241912415	-47.311525295948	0	0	0	0	
2321537500	0	0	-35.6717393345542	-46.8213012142052	0	0	0	0	
2321556250	0	0	-35.7734433209411	-47.218684521264	0	0	0	0	
2321575000	0	0	-35.7045995815775	-46.7327855766197	0	0	0	0	
2321593750	0	0	-35.6892432506504	-47.0264401251631	0	0	0	0	
2321612500	0	0	-35.6220692754355	-47.1072402535441	0	0	0	0	
2321631250	0	0	-35.6782700340805	-47.3160915502653	0	0	0	0	
2321650000	0	0	-35.5987815832303	-47.486751510894	0	0	0	0	
2321668750	0	0	-35.5194530905294	-47.4367388035977	0	0	0	0	
2321687500	0	0	-35.627597191808	-46.8901039042986	0	0	0	0	
2321706250	0	0	-35.6849796306654	-47.4496786384641	0	0	0	0	
2321725000	0	0	-35.5660532458321	-47.5128419495402	0	0	0	0	
2321743750	0	0	-35.552592050196	-47.2971070706183	0	0	0	0	
2321762500	0	0	-35.5846420126528	-47.4172860212915	0	0	0	0	
2321781250	0	0	-35.5980537339177	-47.7751687831196	0	0	0	0	
2321800000	0	0	-35.5773060873609	-47.4823018330528	0	0	0	0	
2321818750	0	0	-35.5550314388625	-47.7637707649502	0	0	0	0	
2321837500	0	0	-35.504467658052	-47.9880463948381	0	0	0	0	
2321856250	0	0	-35.5167784600669	-48.3695009947712	0	0	0	0	
2321875000	0	0	-35.5818450967467	-47.5825302613281	0	0	0	0	
2321893750	0	0	-35.5274961172467	-48.0056459315975	0	0	0	0	
2321912500	0	0	-35.533794835137	-47.7939169129404	0	0	0	0	
2321931250	0	0	-35.5161046418432	-47.9464710326874	0	0	0	0	
2321950000	0	0	-35.5079993387765	-47.7039392587891	0	0	0	0	
2321968750	0	0	-35.5149736059768	-48.0161209626308	0	0	0	0	
2321987500	0	0	-35.506870952221	-48.6290754970095	0	0	0	0	
2322006250	0	0	-35.4288450938986	-47.9236315778569	0	0	0	0	
2322025000	0	0	-35.5093008825428	-48.7566839734323	0	0	0	0	
2322043750	0	0	-35.4843593996409	-48.9675218761174	0	0	0	0	
2322062500	0	0	-35.5078309850914	-48.2637886278171	0	0	0	0	
2322081250	0	0	-35.4823257747015	-48.6730533768055	0	0	0	0	
2322100000	0	0	-35.4958268458482	-48.6964879321776	0	0	0	0	
2322118750	0	0	-35.5398441340515	-48.5073811396531	0	0	0	0	
2322137500	0	0	-35.4479079517398	-48.4352413762176	0	0	0	0	
2322156250	0	0	-35.4239913416907	-49.0457593037014	0	0	0	0	
2322175000	0	0	-35.3979200959282	-48.691882276649	0	0	0	0	
2322193750	0	0	-35.4471221139221	-49.3510872146398	0	0	0	0	
2322212500	0	0	-35.3916496093183	-48.812152152079	0	0	0	0	
2322231250	0	0	-35.334320459983	-48.8537017939818	0	0	0	0	
2322250000	0	0	-35.4581701837477	-49.0044732602517	0	0	0	0	
2322268750	0	0	-35.3410028068032	-49.0441624034752	0	0	0	0	
2322287500	0	0	-35.4201769894078	-49.1819470587285	0	0	0	0	
2322306250	0	0	-35.3611805204644	-49.2477038575458	0	0	0	0	
2322325000	0	0	-35.2913753378042	-48.6955966817305	0	0	0	0	
2322343750	0	0	-35.3260080882466	-49.1622017985366	0	0	0	0	
2322362500	0	0	-35.3032725634841	-49.3079478355779	0	0	0	0	
2322381250	0	0	-35.4017602116643	-49.1369935832313	0	0	0	0	
2322400000	0	0	-35.3507208564218	-49.6825035334475	0	0	0	0	
2322418750	0	0	-35.3048941147328	-49.9148780259892	0	0	0	0	
2322437500	0	0	-35.2435897867859	-49.7215176761828	0	0	0	0	
2322456250	0	0	-35.2911989844502	-49.3422781514916	0	0	0	0	
2322475000	0	0	-35.3006592027091	-49.654655766356	0	0	0	0	
2322493750	0	0	-35.2967112866713	-49.7375628405227	0	0	0	0	
2322512500	0	0	-35.2497697833367	-49.6317990646143	0	0	0	0	
2322531250	0	0	-35.2905216273912	-50.2893034144078	0	0	0	0	
2322550000	0	0	-35.3239806128595	-49.8699431526077	0	0	0	0	
2322568750	0	0	-35.2297286230205	-50.1547747241394	0	0	0	0	
2322587500	0	0	-35.2211656863084	-50.0417233389051	0	0	0	0	
2322606250	0	0	-35.2804355724786	-50.0421388484571	0	0	0	0	
2322625000	0	0	-35.2620819230515	-50.5288717211663	0	0	0	0	
2322643750	0	0	-35.2679909723234	-50.2011982319071	0	0	0	0	
2322662500	0	0	-35.2124655047489	-50.0139841470676	0	0	0	0	
2322681250	0	0	-35.2169754205701	-50.3276230781266	0	0	0	0	
2322700000	0	0	-35.1569126719802	-50.7026833313602	0	0	0	0	
2322718750	0	0	-35.2034946637926	-50.0323586798423	0	0	0	0	
2322737500	0	0	-35.1843229893924	-50.2684498716159	0	0	0	0	
2322756250	0	0	-35.0952154018803	-50.220964260013	0	0	0	0	
2322775000	0	0	-35.1561632215764	-50.3237850421018	0	0	0	0	
2322793750	0	0	-35.1084097120309	-50.8661351867711	0	0	0	0	
2322812500	0	0	-35.0992444449195	-50.8199946303381	0	0	0	0	
2322831250	0	0	-35.226217766548	-51.2285511310887	0	0	0	0	
2322850000	0	0	-35.1074831968764	-50.6866817394746	0	0	0	0	
2322868750	0	0	-35.0600024294557	-51.3770730045783	0	0	0	0	
2322887500	0	0	-35.1469689382882	-51.125752538279	0	0	0	0	
2322906250	0	0	-35.0683668237765	-51.2154425206236	0	0	0	0	
2322925000	0	0	-35.0874548045944	-50.7370001432076	0	0	0	0	
2322943750	0	0	-35.0844753665677	-50.6527899744512	0	0	0	0	
2322962500	0	0	-35.0849781318437	-51.1961332552403	0	0	0	0	
2322981250	0	0	-35.0183983360145	-51.4894512455826	0	0	0	0	
2323000000	0	0	-35.0857950657296	-51.834148663402	0	0	0	0	
2323018750	0	0	-35.0343830423264	-51.1217659626788	0	0	0	0	
2323037500	0	0	-35.0915908125082	-51.4896592651331	0	0	0	0	
2323056250	0	0	-34.9908437854366	-51.6245598629394	0	0	0	0	
2323075000	0	0	-35.0277591532412	-51.7062081603906	0	0	0	0	
2323093750	0	0	-35.0812069176868	-51.4411065701422	0	0	0	0	
2323112500	0	0	-34.9991489373065	-52.1173734669779	0	0	0	0	
2323131250	0	0	-34.9056691451634	-51.978123449732	0	0	0	0	
2323150000	0	0	-34.9821840037599	-51.4051129914608	0	0	0	0	
2323168750	0	0	-34.9704633529538	-51.7330834611218	0	0	0	0	
2323187500	0	0	-34.9236710091015	-51.8518727525698	0	0	0	0	
2323206250	0	0	-34.9385419563317	-52.2499143694009	0	0	0	0	
2323225000	0	0	-34.9398536283859	-52.3758469231537	0	0	0	0	
2323243750	0	0	-34.9491019035404	-51.8323061646778	0	0	0	0	
2323262500	0	0	-34.8474457310138	-51.9277087239634	0	0	0	0	
2323281250	0	0	-34.8668565293962	-52.5553748025754	0	0	0	0	
2323300000	0	0	-34.8206906808062	-52.5542175138618	0	0	0	0	
2323318750	0	0	-34.9171197872937	-52.4346159670261	0	0	0	0	
2323337500	0	0	-34.8995185550606	-53.0775386155414	0	0	0	0	
2323356250	0	0	-34.8878462530794	-52.3366205367136	0	0	0	0	
2323375000	0	0	-34.8661576870067	-52.6340381531136	0	0	0	0	
2323393750	0	0	-34.7755405677702	-52.5222241863692	0	0	0	0	
2323412500	0	0	-34.9105166577947	-52.8935859540503	0	0	0	0	
2323431250	0	0	-34.7964846750603	-52.5523682163447	0	0	0	0	
2323450000	0	0	-34.8347237660084	-53.0496895704099	0	0	0	0	
2323468750	0	0	-34.7358786947571	-52.5028626445601	0	0	0	0	
2323487500	0	0	-34.789844854271	-52.4314969420501	0	0	0	0	
2323506250	0	0	-34.8629881562988	-52.6920999381992	0	0	0	0	
2323525000	0	0	-34.778497428962	-52.6868747065814	0	0	0	0	
2323543750	0	0	-34.8572338793226	-53.1339607627152	0	0	0	0	
2323562500	0	0	-34.7924441998567	-53.4492700755116	0	0	0	0	
2323581250	0	0	-34.7805007133626	-53.2133569273792	0	0	0	0	
2323600000	0	0	-34.7552505889542	-53.1536622337372	0	0	0	0	
2323618750	0	0	-34.7767089422601	-53.0449855306017	0	0	0	0	
2323637500	0	0	-34.7090386287168	-53.0805241681052	0	0	0	0	
2323656250	0	0	-34.6613630198885	-53.2707282841209	0	0	0	0	
2323675000	0	0	-34.6356124614133	-53.502953521082	0	0	0	0	
2323693750	0	0	-34.7618322845755	-53.3924974104596	0	0	0	0	
2323712500	0	0	-34.6387780610289	-53.1632502419851	0	0	0	0	
2323731250	0	0	-34.6458424695094	-53.7269117295749	0	0	0	0	
2323750000	0	0	-34.5848733351997	-53.8455706645413	0	0	0	0	
2323768750	0	0	-34.6882770958129	-54.1839128479196	0	0	0	0	
2323787500	0	0	-34.690931282287	-54.0101227775478	0	0	0	0	
2323806250	0	0	-34.6914343573917	-54.2437879567181	0	0	0	0	
2323825000	0	0	-34.6301150833075	-53.9565568848513	0	0	0	0	
2323843750	0	0	-34.6067574566536	-53.9272545309128	0	0	0	0	
2323862500	0	0	-34.6485866811832	-53.9440045444654	0	0	0	0	
2323881250	0	0	-34.6050572214086	-53.5515973212186	0	0	0	0	
2323900000	0	0	-34.6498051160226	-53.9917706245945	0	0	0	0	
2323918750	0	0	-34.5893387225965	-54.1978877442386	0	0	0	0	
2323937500	0	0	-34.570732841388	-54.0984378599185	0	0	0	0	
2323956250	0	0	-34.5638884135892	-54.7746323362631	0	0	0	0	
2323975000	0	0	-34.5878794328915	-54.1973170926879	0	0	0	0	
2323993750	0	0	-34.5173428182313	-54.1359051221877	0	0	0	0	
2324012500	0	0	-34.5844876927595	-54.5671763549249	0	0	0	0	
2324031250	0	0	-34.4551674034485	-54.6332899189736	0	0	0	0	
2324050000	0	0	-34.489011692339	-55.0340663353954	0	0	0	0	
2324068750	0	0	-34.500638376064	-54.5362536909032	0	0	0	0	
2324087500	0	0	-34.540931251594	-54.5035352125863	0	0	0	0	
2324106250	0	0	-34.4962250534415	-55.1296441596056	0	0	0	0	
2324125000	0	0	-34.4999814292003	-54.8333204492117	0	0	0	0	
2324143750	0	0	-34.4882256244516	-54.9802840628605	0	0	0	0	
2324162500	0	0	-34.4488460929479	-54.8204772825421	0	0	0	0	
2324181250	0	0	-34.4190889557488	-54.984720244111	0	0	0	0	
2324200000	0	0	-34.447715789046	-55.5653382760293	0	0	0	0	
2324218750	0	0	-34.3248879363228	-55.2365531811592	0	0	0	0	
2324237500	0	0	-34.4076562611728	-55.0155870298097	0	0	0	0	
2324256250	0	0	-34.4321905115699	-55.7676921043307	0	0	0	0	
2324275000	0	0	-34.3646273322385	-55.7159412154536	0	0	0	0	
2324293750	0	0	-34.3425383910265	-55.6255762501177	0	0	0	0	
2324312500	0	0	-34.3461691539266	-55.2555252619618	0	0	0	0	
2324331250	0	0	-34.3393988174759	-55.5680390771969	0	0	0	0	
2324350000	0	0	-34.2997426830051	-55.5979663339056	0	0	0	0	
2324368750	0	0	-34.280740607367	-55.8677970454542	0	0	0	0	
2324387500	0	0	-34.3499874516549	-55.5255360531126	0	0	0	0	
2324406250	0	0	-34.30109049673	-55.4187943214084	0	0	0	0	
2324425000	0	0	-34.2593094146723	-55.9529927100022	0	0	0	0	
2324443750	0	0	-34.3174010454252	-55.8550950024837	0	0	0	0	
2324462500	0	0	-34.2757843111607	-56.0821836985858	0	0	0	0	
2324481250	0	0	-34.2785378353471	-56.2579453631491	0	0	0	0	
2324500000	0	0	-34.250847145011	-55.6349118220617	0	0	0	0	
2324518750	0	0	-34.1961696699453	-56.3940398416538	0	0	0	0	
2324537500	0	0	-34.2023702883015	-56.4628538979111	0	0	0	0	
2324556250	0	0	-34.1733309058891	-56.5414211755182	0	0	0	0	
2324575000	0	0	-34.1991602549034	-56.4660840804169	0	0	0	0	
2324593750	0	0	-34.1586851049845	-56.668751088593	0	0	0	0	
2324612500	0	0	-34.1437979859692	-56.3284362121397	0	0	0	0	
2324631250	0	0	-34.0988680941495	-56.1781658354688	0	0	0	0	
2324650000	0	0	-34.1725473623883	-56.7874435423869	0	0	0	0	
2324668750	0	0	-34.2123979693618	-56.4619975274875	0	0	0	0	
2324687500	0	0	-34.0777468318316	-56.4986638551571	0	0	0	0	
2324706250	0	0	-34.0937136091961	-56.4101308654561	0	0	0	0	
2324725000	0	0	-34.1083539266107	-56.9879246059295	0	0	0	0	
2324743750	0	0	-34.1031767195586	-56.6330543121596	0	0	0	0	
2324762500	0	0	-34.0285567959554	-56.9632781154666	0	0	0	0	
2324781250	0	0	-34.0997217580452	-56.9641536650439	0	0	0	0	
2324800000	0	0	-34.0608609567972	-57.4103026946834	0	0	0	0	
2324818750	0	0	-34.0593948685062	-57.2923277311552	0	0	0	0	
2324837500	0	0	-34.0527810137362	-57.4853896221355	0	0	0	0	
2324856250	0	0	-33.9829487081258	-57.4245251490239	0	0	0	0	
2324875000	0	0	-34.0096484212691	-57.3350717298982	0	0	0	0	
2324893750	0	0	-33.9393710086094	-57.0359489047284	0	0	0	0	
2324912500	0	0	-33.9833493323478	-56.8688047061687	0	0	0	0	
2324931250	0	0	-34.0722071911283	-57.5328484930084	0	0	0	0	
2324950000	0	0	-34.0485619968692	-57.8634429086138	0	0	0	0	
2324968750	0	0	-33.933510116142	-57.3988749760265	0	0	0	0	
2324987500	0	0	-33.958622563172	-57.3890304795551	0	0	0	0	
2325006250	0	0	-34.0032391917563	-57.7701555749411	0	0	0	0	
2325025000	0	0	-33.9612913757294	-57.9065202218357	0	0	0	0	
2325043750	0	0	-33.8952006483333	-57.9509115071768	0	0	0	0	
2325062500	0	0	-33.9289206737653	-57.8805937715713	0	0	0	0	
2325081250	0	0	-33.8835591778496	-58.0081124051409	0	0	0	0	
2325100000	0	0	-33.9356362729077	-58.1452832707257	0	0	0	0	
2325118750	0	0	-33.8974007014076	-57.6816511661969	0	0	0	0	
2325137500	0	0	-33.8918505836685	-58.7661559786626	0	0	0	0	
2325156250	0	0	-33.8573776183226	-58.0987978251043	0	0	0	0	
2325175000	0	0	-33.813534768609	-58.3916618424747	0	0	0	0	
2325193750	0	0	-33.763385037043	-57.9392543391844	0	0	0	0	
2325212500	0	0	-33.7862161495688	-58.3975600651805	0	0	0	0	
2325231250	0	0	-33.8071948675838	-58.2453631595371	0	0	0	0	
2325250000	0	0	-33.7794255548754	-59.1174853296225	0	0	0	0	
2325268750	0	0	-33.8110704917302	-58.4972113303059	0	0	0	0	
2325287500	0	0	-33.7806277692371	-58.8977306940197	0	0	0	0	
2325306250	0	0	-33.7341771246099	-58.644586868289	0	0	0	0	
2325325000	0	0	-33.7362546539035	-59.0973390216682	0	0	0	0	
2325343750	0	0	-33.6922113089949	-58.4579801668892	0	0	0	0	
2325362500	0	0	-33.6834231323592	-59.6623644517295	0	0	0	0	
2325381250	0	0	-33.6567623063949	-59.0666804808447	0	0	0	0	
2325400000	0	0	-33.7163849571053	-59.0072794383253	0	0	0	0	
2325418750	0	0	-33.69508850306	-59.3465156777813	0	0	0	0	
2325437500	0	0	-33.6878169559171	-59.1523102970601	0	0	0	0	
2325456250	0	0	-33.6679839922933	-59.1443506022841	0	0	0	0	
2325475000	0	0	-33.6611332982034	-59.0122218113371	0	0	0	0	
2325493750	0	0	-33.6450076518297	-59.4499306151526	0	0	0	0	
2325512500	0	0	-33.5652380363086	-59.3799852311637	0	0	0	0	
2325531250	0	0	-33.5437588620381	-59.7281689425044	0	0	0	0	
2325550000	0	0	-33.5865479975383	-59.4873446339418	0	0	0	0	
